# GHZ S RI R 50.000000000000
3.950000000000 0.053450752832 -0.500609639333 0.805221835810 0.105547584674 0.795585228740 0.073188609927 0.061538937159 -0.506681349636
3.950422222000 0.054061533515 -0.500605476238 0.806671820475 0.097481883988 0.794872201683 0.075490842819 0.055695799867 -0.506538097370
3.950844444000 0.053966380873 -0.500069075825 0.806350593867 0.091507514593 0.793545664676 0.076493576841 0.051565947548 -0.506456642756
3.951266666000 0.052555954598 -0.501234330030 0.807596383800 0.086441976922 0.793233272713 0.076130614089 0.047650756152 -0.505305368840
3.951688888000 0.051776933021 -0.501791730625 0.806776148984 0.083734493354 0.793315290874 0.076619134099 0.046287463999 -0.504811114115
3.952111111000 0.052022346286 -0.501798564376 0.808560884677 0.080986083892 0.793147130778 0.075720618388 0.043966170450 -0.505213150609
3.952533333000 0.051035579946 -0.501697049344 0.808114558645 0.079038790090 0.792887463593 0.075015802381 0.042277174978 -0.504860627119
3.952955555000 0.049296423361 -0.502369366174 0.808995939766 0.074155099004 0.793254716045 0.074296103368 0.040874209205 -0.504797959241
3.953377777000 0.048550171737 -0.501888924764 0.808966071738 0.073713488613 0.793918108814 0.074140703974 0.040687434887 -0.504686888909
3.953800000000 0.048399844544 -0.501418869816 0.810505601109 0.072023358344 0.793467637181 0.071783887802 0.038229103401 -0.504993166768
3.954222222000 0.047831717225 -0.501746990812 0.809308232425 0.070491222133 0.794154763623 0.072195819333 0.038692616276 -0.504023445049
3.954644444000 0.046546582612 -0.501321709846 0.808992146857 0.069591964952 0.794351993252 0.070403904584 0.037733550760 -0.504450923335
3.955066666000 0.045976545270 -0.501218693079 0.810348477094 0.067070182464 0.794643387988 0.070242096199 0.037501950060 -0.504717560095
3.955488888000 0.045688055259 -0.502369918614 0.811260070133 0.066694822864 0.795256248117 0.068602967015 0.036128418321 -0.505225690523
3.955911111000 0.045581504319 -0.501882847194 0.811307420214 0.066032185124 0.795080351506 0.067872390123 0.035368293983 -0.504780823669
3.956333333000 0.042800774539 -0.502335571674 0.809909229827 0.063106160689 0.796202935060 0.067534775384 0.036118060576 -0.503287437018
3.956755555000 0.044334802436 -0.502888613780 0.812472855840 0.063061806039 0.796520017030 0.065641760770 0.033891161910 -0.504419804930
3.957177777000 0.043177210222 -0.502490734010 0.811179910068 0.062454696240 0.796523298058 0.064582792063 0.033550807247 -0.503575411761
3.957600000000 0.043157416205 -0.501539272713 0.812839690655 0.060020490447 0.796514824839 0.062948338658 0.031499583333 -0.505861675391
3.958022222000 0.042049989095 -0.502794755925 0.814005179787 0.059432299189 0.797130080345 0.061616028951 0.031241709269 -0.504832095181
3.958444444000 0.042497317200 -0.501103218806 0.813370592041 0.057271991719 0.796548395676 0.061241592459 0.030231042410 -0.505023030920
3.958866666000 0.041297291408 -0.502600602175 0.814177018539 0.057242167041 0.798661304359 0.060399240694 0.029662053123 -0.504563143467
3.959288888000 0.040246733259 -0.501703726790 0.814995440202 0.055131229320 0.798094715734 0.058734948138 0.029466763768 -0.505550715699
3.959711111000 0.039682184713 -0.502922062023 0.814687051446 0.054343113278 0.799113196349 0.057584716965 0.028500326516 -0.504576921484
3.960133333000 0.039331497902 -0.503086895806 0.814333578700 0.053168112355 0.798899215815 0.056377814326 0.027363952085 -0.504065949527
3.960555555000 0.038919999892 -0.502883366005 0.816439105303 0.051674186337 0.799647147256 0.054874136739 0.026551034200 -0.505515341255
3.960977777000 0.038059188756 -0.502258834456 0.816381888588 0.050057766932 0.799751204305 0.054391968637 0.025909869984 -0.505465357378
3.961400000000 0.038628090519 -0.502707718319 0.815366874860 0.049690695750 0.800714636748 0.055539731369 0.026284495910 -0.505742954202
3.961822222000 0.036466263012 -0.502405841959 0.816784983853 0.048044363891 0.800016043076 0.052708121034 0.025255864835 -0.504995064658
3.962244444000 0.036027330567 -0.502492218448 0.817251635473 0.045905416215 0.799655134593 0.050892896551 0.023332324820 -0.504889065832
3.962666666000 0.035138437571 -0.502739598870 0.817742690277 0.044999187515 0.801982073128 0.049493049795 0.023150077517 -0.506343648671
3.963088888000 0.034873164172 -0.502558487807 0.818334451075 0.043178755245 0.800027461390 0.048814439708 0.021904366936 -0.504663851915
3.963511111000 0.034087925806 -0.503192653208 0.817958924255 0.042403680946 0.801629023360 0.048343521044 0.022019226449 -0.504937293519
3.963933333000 0.033497632901 -0.503174619759 0.818941938612 0.040823938092 0.802465055960 0.045924222407 0.020462220414 -0.505658251285
3.964355555000 0.032964987626 -0.502396838556 0.819160770426 0.038862220342 0.800950765920 0.045467246572 0.019325779148 -0.504918162803
3.964777777000 0.033039208853 -0.502649943688 0.818933779494 0.038482231894 0.802113274605 0.044685688083 0.018804964284 -0.505727126148
3.965200000000 0.032033876865 -0.502248927456 0.819807459140 0.036842983518 0.801681076699 0.043581537028 0.018114123156 -0.505871807075
3.965622222000 0.031088146020 -0.501651323887 0.819761183840 0.035259259067 0.801791046351 0.043353197680 0.017786368374 -0.505191646308
3.966044444000 0.030608573683 -0.502746807076 0.820110240198 0.033830726925 0.803090726599 0.040643377673 0.015924550161 -0.505783889386
3.966466666000 0.029832234953 -0.503565351607 0.820511339785 0.032742885609 0.804830435131 0.040713088228 0.016062999686 -0.505733712449
3.966888888000 0.029607686824 -0.503665544379 0.820884829182 0.031549890956 0.803892740384 0.039128062916 0.014312446165 -0.505247062905
3.967311111000 0.028880736410 -0.502742469941 0.821580712694 0.029790915925 0.803571503066 0.037620708324 0.013175246321 -0.505642308111
3.967733333000 0.027488588210 -0.503384570814 0.821516053174 0.028672790708 0.804724980596 0.036347549784 0.013209946515 -0.505829570732
3.968155555000 0.027738064415 -0.503162150662 0.821444520257 0.027006346748 0.804188264207 0.037327834518 0.013247327777 -0.505006180561
3.968577777000 0.026924987702 -0.503091668629 0.821734177158 0.025529928893 0.804910100177 0.034937829095 0.011207950109 -0.505864625986
3.969000000000 0.026185551603 -0.504049232087 0.823443011737 0.025508613692 0.805782480592 0.030657175919 0.005958946588 -0.506234156613
3.969422222000 0.024770166863 -0.503303870555 0.822281113307 0.022861458979 0.805431794003 0.031818450211 0.009737458713 -0.505350547757
3.969844444000 0.024494365443 -0.502986764402 0.822690395133 0.021668379195 0.805285666830 0.029787620965 0.007555359130 -0.505778474488
3.970266666000 0.023754285217 -0.504148821531 0.823075556568 0.020462509807 0.806658208162 0.029406690636 0.007421198374 -0.505324987440
3.970688888000 0.023834621951 -0.503157043903 0.822969520816 0.018881139199 0.806275414217 0.029458635229 0.007222622447 -0.505700673928
3.971111111000 0.022629377998 -0.504242453737 0.823503688335 0.017435198190 0.807399125636 0.027333592025 0.005599762341 -0.505573340261
3.971533333000 0.021260349785 -0.502984930238 0.823669227734 0.016277041447 0.806262485392 0.026477881960 0.006009184272 -0.505325778736
3.971955555000 0.020609547797 -0.503837995602 0.823973580448 0.014809118110 0.807981381172 0.024386769404 0.004065216180 -0.505966148870
3.972377777000 0.020422946969 -0.503338408152 0.824123104395 0.013398067781 0.807593099690 0.023503148032 0.003076363848 -0.505879718590
3.972800000000 0.019837796192 -0.503860484510 0.824567903200 0.011923629737 0.807450123482 0.023864046115 0.003375395259 -0.505182117193
3.973222222000 0.018818831177 -0.504276234022 0.824158181084 0.010370901287 0.809643930964 0.022297697901 0.002981677162 -0.506259475147
3.973644444000 0.017877189998 -0.504356383123 0.824919182587 0.009253111524 0.808665969691 0.019710826160 0.000483192055 -0.505340165967
3.974066666000 0.018052046408 -0.505392794112 0.825096793219 0.007806744335 0.810206097591 0.020326163846 0.000381380293 -0.505809421921
3.974488888000 0.016679505491 -0.503928817667 0.825315742025 0.006452336909 0.808700360367 0.018727609854 -0.000003896111 -0.504917926705
3.974911111000 0.015904983199 -0.503750267458 0.825726792500 0.004718976848 0.809446961542 0.017274009117 -0.001267544194 -0.505549087366
3.975333333000 0.015757975411 -0.504903781256 0.825771695053 0.003813236114 0.810781284544 0.016728110811 -0.002158063150 -0.505478240268
3.975755555000 0.014233642126 -0.505240978768 0.825810582258 0.002081608589 0.810467363450 0.014096703965 -0.003438594815 -0.504791557944
3.976177777000 0.013333821246 -0.504614383876 0.825892641248 0.000800600615 0.810551749462 0.013280145619 -0.003774246678 -0.505014818837
3.976600000000 0.012479410983 -0.503157221095 0.826471765539 -0.000101500456 0.810242209241 0.013766538194 -0.002628600273 -0.505143512241
3.977022222000 0.012526800321 -0.503727174709 0.826546583417 -0.001414782823 0.810448266918 0.012203767347 -0.004508665867 -0.505304595046
3.977444444000 0.012103279842 -0.505582828486 0.827055009007 -0.002669000074 0.811698448610 0.011927719875 -0.005726567123 -0.504625629489
3.977866666000 0.010892055883 -0.504536069281 0.826600664874 -0.004258550692 0.811680888984 0.008474736219 -0.007349759893 -0.505288948502
3.978288888000 0.010612582492 -0.504257762861 0.826671538027 -0.005813082930 0.811391320210 0.007897447890 -0.008200246526 -0.505117723689
3.978711111000 0.009953096514 -0.504133513166 0.826838954503 -0.007064684572 0.811880136845 0.006762898405 -0.008985928401 -0.505150747144
3.979133333000 0.007637797066 -0.504738007233 0.827437526722 -0.008443165299 0.811335564052 0.003727055696 -0.010486378866 -0.503316047238
3.979555555000 0.007686224444 -0.505083548475 0.827355413814 -0.010169664299 0.813036513170 0.004504125977 -0.010567628030 -0.504770882053
3.979977777000 0.007317286185 -0.505069818731 0.827883994037 -0.011308849266 0.813250208573 0.003814448622 -0.010805987650 -0.505688160984
3.980400000000 0.006865589763 -0.504825069297 0.827981578968 -0.012655278634 0.812205655845 0.003074155356 -0.011433733159 -0.504035133122
3.980822222000 0.005860063710 -0.505710292584 0.828333087668 -0.013873604121 0.814172369302 0.000713508769 -0.013630551891 -0.505291948607
3.981244444000 0.004120351536 -0.505362807815 0.827752114430 -0.015141624973 0.813809810866 -0.002252480353 -0.014504649843 -0.504220239150
3.981666666000 0.003471467117 -0.507609530343 0.829161239773 -0.016764077345 0.815464004876 -0.000091731225 -0.013004845709 -0.503743913784
3.982088888000 0.003425445529 -0.506134651692 0.828843989724 -0.018032146871 0.815210366011 -0.002418870395 -0.015275207350 -0.505071591325
3.982511111000 0.002661018051 -0.505217323425 0.829001637995 -0.019574156202 0.814234295408 -0.003834971697 -0.016132107868 -0.504375742537
3.982933333000 0.002028485420 -0.506992206443 0.828855968753 -0.020914898986 0.815940020155 -0.004221248674 -0.016639018444 -0.503913085514
3.983355555000 0.001478500670 -0.506948133133 0.828823109087 -0.022706935363 0.816821004657 -0.006041201389 -0.018801516587 -0.504620058526
3.983777777000 0.000277574696 -0.506826619583 0.829058517412 -0.024022396508 0.816398773750 -0.007686934719 -0.019404901609 -0.504084481537
3.984200000000 0.000582918021 -0.502985922505 0.828422045668 -0.023718481251 0.813023608228 -0.007974269336 -0.018347393426 -0.504090940529
3.984622222000 -0.002532075401 -0.506798725082 0.828874154627 -0.026700317894 0.817213872056 -0.011074523598 -0.020951371904 -0.503861175669
3.985044444000 -0.002823168059 -0.506132543683 0.829588859537 -0.027525759670 0.816568413900 -0.011571833379 -0.021235773492 -0.503696816896
3.985466666000 -0.002494369701 -0.506901872168 0.829671117981 -0.028821315807 0.817375506642 -0.012151189489 -0.021987549951 -0.503471752940
3.985888888000 -0.004893535371 -0.507145964233 0.828926400446 -0.030745343610 0.818582520251 -0.015229544128 -0.023879508671 -0.503763399406
3.986311111000 -0.003543079131 -0.506473096770 0.829718564017 -0.031384802452 0.817698119177 -0.014208816833 -0.023882031696 -0.503699156433
3.986733333000 -0.004801918568 -0.505842339943 0.829951974623 -0.032294843427 0.816182207127 -0.015767835525 -0.023598027767 -0.502773571529
3.987155555000 -0.006039251341 -0.506308983993 0.830261101981 -0.034147724876 0.817282968581 -0.015868177105 -0.024148907935 -0.503341202967
3.987577777000 -0.006734492854 -0.507723143140 0.830597615547 -0.035601461811 0.819411146066 -0.018218873014 -0.025745284213 -0.503641428856
3.988000000000 -0.007801182988 -0.506323943983 0.830254123498 -0.037232156481 0.818340482868 -0.019565125984 -0.026778211939 -0.502924772208
3.988422222000 -0.009819671258 -0.507064181796 0.830532774470 -0.039813623580 0.819502579929 -0.022098726906 -0.028334297761 -0.503561656898
3.988844444000 -0.009838175082 -0.507307478823 0.830610275709 -0.040432639132 0.820454844515 -0.022230145717 -0.028412160454 -0.503979894224
3.989266666000 -0.009282993815 -0.508106014885 0.831005514604 -0.041880732115 0.820886932624 -0.023136134336 -0.030476182290 -0.503758832565
3.989688888000 -0.011253400630 -0.507160239241 0.830194419257 -0.042867845990 0.819228985939 -0.025222746593 -0.030332286817 -0.502137051540
3.990111111000 -0.014082744420 -0.506938778458 0.830258474139 -0.044945251357 0.820300568149 -0.028314805740 -0.031499475596 -0.502463221948
3.990533333000 -0.012570742921 -0.507069411442 0.830757345306 -0.045053721695 0.819564366232 -0.026508495347 -0.031282777724 -0.501859271447
3.990955555000 -0.012648553283 -0.506732010559 0.831438165643 -0.046617734827 0.819991081879 -0.027087868494 -0.032301274200 -0.502919835281
3.991377777000 -0.013590519612 -0.506884362510 0.831523749115 -0.048173358980 0.820391635583 -0.029149160077 -0.033482024276 -0.502592610943
3.991800000000 -0.017318962136 -0.507955077193 0.830621815056 -0.051149332688 0.823155179602 -0.032756042774 -0.034510573424 -0.503322548893
3.992222222000 -0.016504428011 -0.507457254825 0.831274088181 -0.051705093791 0.821456571129 -0.032783378991 -0.035846743657 -0.502361616249
3.992644444000 -0.016854603774 -0.507560214204 0.831100746229 -0.052559463115 0.820875248227 -0.032558477811 -0.035275806998 -0.501088135657
3.993066666000 -0.017632963386 -0.508542476121 0.831969718559 -0.054093372954 0.822679482147 -0.033943466645 -0.036477452508 -0.502296727884
3.993488888000 -0.019013365569 -0.508228688484 0.831899790037 -0.056327960322 0.822622743248 -0.035723142144 -0.037662383689 -0.502093642291
3.993911111000 -0.020223029950 -0.508229119716 0.831831434837 -0.057030220636 0.822479345577 -0.038100469197 -0.038994261149 -0.501130573587
3.994333333000 -0.022292507797 -0.507521069669 0.832388236950 -0.058802553629 0.824248926182 -0.038626445883 -0.038417442901 -0.503068872755
3.994755555000 -0.022929878011 -0.507511356320 0.831721731830 -0.060459990961 0.822856290164 -0.041091296024 -0.040027664839 -0.501058448593
3.995177777000 -0.022506289174 -0.508353450210 0.831794388392 -0.060759833132 0.823525321124 -0.041723705716 -0.041089201433 -0.500701376730
3.995600000000 -0.023306061027 -0.506774119663 0.831011810323 -0.062130667403 0.821958861918 -0.042690017692 -0.041085967278 -0.500462561073
3.996022222000 -0.025469130907 -0.507975534071 0.831945868754 -0.064732098907 0.823887750709 -0.045537395272 -0.043150183744 -0.500561783455
3.996444444000 -0.024884052085 -0.508661503554 0.831847297360 -0.065317385647 0.825039084561 -0.045236614309 -0.043385363798 -0.501066089054
3.996866666000 -0.027289678619 -0.508943647255 0.832588845762 -0.067821259582 0.826305875056 -0.048160532230 -0.045343534550 -0.501925443682
3.997288888000 -0.026611745816 -0.507779851998 0.832996515336 -0.068003924287 0.823783203911 -0.046998034831 -0.044513330109 -0.500939571423
3.997711111000 -0.028428791856 -0.509051916954 0.832132023069 -0.070147559511 0.826751106673 -0.049817218351 -0.046456562685 -0.500975747642
3.998133333000 -0.029409836571 -0.508882134930 0.833214864137 -0.070420907028 0.825827768881 -0.050775488236 -0.046102685650 -0.500931453681
3.998555555000 -0.031124821415 -0.509186064226 0.832737319234 -0.072785848888 0.826069262456 -0.052668737817 -0.047305540985 -0.500077484309
3.998977777000 -0.031230750696 -0.508489552348 0.833522946320 -0.073367714287 0.825162042613 -0.052454997719 -0.046552847127 -0.499948443247
3.999400000000 -0.031826556572 -0.509749631228 0.833794499574 -0.075227694807 0.827073548638 -0.055153694831 -0.049672615563 -0.500587691119
3.999822222000 -0.033528059590 -0.508271068145 0.831977244734 -0.077228072265 0.826216907240 -0.055747060513 -0.049174053941 -0.499101716290
4.000244444000 -0.034143501063 -0.507266829245 0.831430210774 -0.078400743129 0.825378686439 -0.057491916897 -0.049909532307 -0.498663001894
4.000666666000 -0.035144254137 -0.508758392133 0.831727483594 -0.078948097808 0.827713963391 -0.057994246322 -0.050106638527 -0.499187282751
4.001088888000 -0.035813219319 -0.508328350486 0.832337460185 -0.082003738529 0.827275412957 -0.058921474099 -0.051525510153 -0.499191684781
4.001511111000 -0.037306677492 -0.508367202439 0.833234831637 -0.081606221306 0.827589874888 -0.062086403843 -0.052324913082 -0.499350691470
4.001933333000 -0.037224514913 -0.507770421251 0.831804360205 -0.083705066939 0.826418907232 -0.061598232233 -0.052475469117 -0.497924685890
4.002355555000 -0.038996211344 -0.507685977707 0.832476385978 -0.084387958851 0.827879011605 -0.064859604633 -0.053893887737 -0.499306614121
4.002777777000 -0.040134508665 -0.508408344877 0.831763206753 -0.086335130631 0.828698726402 -0.065404187468 -0.054217038064 -0.498762374726
4.003200000000 -0.041845925975 -0.508423037834 0.832897376052 -0.088650156390 0.828183682218 -0.067052553593 -0.055169842096 -0.498222802244
4.003622222000 -0.043037417786 -0.507565839808 0.833802778957 -0.090048128800 0.826960632844 -0.070730071917 -0.057693363229 -0.497783141580
4.004044444000 -0.043616415745 -0.507594186872 0.833271647309 -0.091723223167 0.826954266373 -0.070346512074 -0.057374463331 -0.497569534065
4.004466666000 -0.043157766311 -0.507939114436 0.831719332600 -0.091707868721 0.829664362083 -0.070924423947 -0.057248127501 -0.497945398408
4.004888888000 -0.045584316004 -0.507494291403 0.832647429637 -0.093826309700 0.827690795761 -0.073100230321 -0.058262074584 -0.497216876067
4.005311111000 -0.045811269031 -0.508388178350 0.832712936478 -0.095542708409 0.830572074156 -0.073370175656 -0.059247364407 -0.498479435804
4.005733333000 -0.048165532680 -0.506955404634 0.833682261848 -0.097944581310 0.828082606393 -0.077475105285 -0.061332373764 -0.497383829473
4.006155555000 -0.048949347941 -0.507575435621 0.833548931418 -0.098116969105 0.829524548527 -0.078237794136 -0.061245855106 -0.497430787072
4.006577777000 -0.050315779990 -0.508119760483 0.834083414057 -0.099437868990 0.831084527362 -0.080527432234 -0.062792499608 -0.498190685827
4.007000000000 -0.048669188287 -0.510191343291 0.832984879413 -0.094754121323 0.835626118115 -0.079350298838 -0.060122491961 -0.500335437124
4.007422222000 -0.051589046861 -0.506807150512 0.831717388250 -0.102933431579 0.830108638180 -0.080980794725 -0.062855981638 -0.496490702630
4.007844444000 -0.054609721580 -0.506459569924 0.832132844321 -0.105674028312 0.829676905317 -0.085410376703 -0.065200233432 -0.495539323302
4.008266666000 -0.054961972079 -0.506669475932 0.830817282586 -0.105904181295 0.831175199326 -0.084607139103 -0.063417047481 -0.496378474212
4.008688888000 -0.057428695670 -0.508397747240 0.834035412707 -0.107491631023 0.832372720197 -0.088276491174 -0.066071454632 -0.497325137675
4.009111111000 -0.057892368199 -0.507564565195 0.834071117881 -0.108348554039 0.831907628917 -0.090447627614 -0.066820564643 -0.496855091700
4.009533333000 -0.058454750616 -0.506490379248 0.832682800344 -0.111462922054 0.830381437580 -0.088931388157 -0.066825381025 -0.495478835995
4.009955555000 -0.058997215185 -0.505980540534 0.832453656212 -0.111167981233 0.830286936623 -0.091225078400 -0.067145430557 -0.495760226500
