# GHZ S RI R 50.000000000000
3.950000000000 -0.049965834091 -0.000559012806 0.347263947171 0.917898694259 0.375224525896 0.902577829402 -0.030739308289 0.026111197255
3.950422222000 -0.048679315520 0.000483512288 0.356043038902 0.915452581838 0.372772151657 0.902313607528 -0.030981523382 0.027215251416
3.950844444000 -0.047559220231 0.002619160156 0.364756478015 0.912548589606 0.371515533540 0.903573193394 -0.029648855595 0.028326786819
3.951266666000 -0.048171158063 0.002543680146 0.369451118517 0.911442508371 0.371295524895 0.901896936352 -0.030053404197 0.029568845224
3.951688888000 -0.046454944586 0.002494473453 0.373507743447 0.908316743177 0.371627378291 0.904892248296 -0.030736860641 0.029690289367
3.952111111000 -0.046261102764 0.004140115250 0.377086746897 0.908521991166 0.373840589176 0.904391979450 -0.029655341454 0.030794114637
3.952533333000 -0.045937697794 0.003916347953 0.379035686948 0.907456121967 0.374568020775 0.903051846348 -0.028656071668 0.030596084318
3.952955555000 -0.046168112231 0.004690849108 0.383289205477 0.908029311863 0.374927462537 0.902981132128 -0.028614752098 0.031762382086
3.953377777000 -0.046712754577 0.004323451006 0.383325748640 0.907245609373 0.375370712943 0.904315270926 -0.029297425817 0.032587587972
3.953800000000 -0.047175077036 0.006059389087 0.386637363699 0.910035154214 0.377453186616 0.903639399171 -0.027657458379 0.033263675859
3.954222222000 -0.046439960864 0.005683812246 0.385908661750 0.906207049154 0.378460077064 0.903131704716 -0.028495106212 0.032777383479
3.954644444000 -0.046059238200 0.006031084158 0.389739927159 0.906769330402 0.380289426253 0.902953215915 -0.027715156202 0.033580378635
3.955066666000 -0.047234176724 0.006671036161 0.390891106779 0.905704038950 0.379467151961 0.903254109590 -0.028064165895 0.033988111851
3.955488888000 -0.046429999364 0.006358270863 0.391610655692 0.907505055995 0.381991086339 0.902410301507 -0.028102130522 0.033099558708
3.955911111000 -0.046249592755 0.006991297163 0.392495979071 0.906280050700 0.383275180134 0.901376320109 -0.026793111637 0.033465824889
3.956333333000 -0.047555559933 0.006890079443 0.393082592541 0.904566050955 0.382845823820 0.904251142223 -0.027549284764 0.034792752658
3.956755555000 -0.046711944419 0.006724989760 0.396106371551 0.903924607016 0.384887005934 0.902470730134 -0.027287562562 0.032584408442
3.957177777000 -0.046171439211 0.006791472754 0.397352996004 0.902909784857 0.387291345364 0.901432857619 -0.026785145336 0.033776550641
3.957600000000 -0.046194140776 0.007857470268 0.399554330287 0.903877031533 0.388893036050 0.901536838794 -0.026600859167 0.033799298639
3.958022222000 -0.047050338193 0.007217067297 0.398273377732 0.905331518709 0.389513372836 0.900072624297 -0.027385077951 0.034173351985
3.958444444000 -0.046995724996 0.009719337730 0.401802445456 0.905341470594 0.389211471049 0.901941344073 -0.026399530307 0.035330131917
3.958866666000 -0.046836923127 0.007874743202 0.403053833701 0.904488041349 0.391995690462 0.902655157501 -0.026842205963 0.034206026179
3.959288888000 -0.047518035944 0.009226034009 0.403789668913 0.904037366356 0.392229637434 0.901211439072 -0.026639822131 0.035216874628
3.959711111000 -0.047448326783 0.008634277818 0.402901517547 0.903667858702 0.395396895054 0.900930549172 -0.027248976322 0.035283898078
3.960133333000 -0.046528613390 0.009456496822 0.406910331286 0.902887615227 0.396754152433 0.901405590050 -0.025977869393 0.035572127386
3.960555555000 -0.047111824946 0.010164554243 0.408946715229 0.904512107593 0.398423554765 0.901214089685 -0.025347011997 0.035480425244
3.960977777000 -0.047175333889 0.010574295706 0.409726666725 0.903192371323 0.399260897592 0.901310144444 -0.025291034703 0.036007471125
3.961400000000 -0.045747265369 0.010804137035 0.410792036236 0.902681224563 0.397578160870 0.903124064983 -0.024883054251 0.035265547795
3.961822222000 -0.046708142811 0.011062816976 0.412632899637 0.902570207961 0.401821068494 0.900753035510 -0.025280794210 0.036176968095
3.962244444000 -0.046595537205 0.011079390857 0.414621607886 0.902436411703 0.402616396374 0.898173098096 -0.024648565333 0.035785174652
3.962666666000 -0.046376100008 0.011559673235 0.415526296218 0.902838161747 0.405910354194 0.900840879365 -0.024904307129 0.035803649179
3.963088888000 -0.046342797496 0.012187238806 0.418813260527 0.902435211433 0.405057885044 0.898377969123 -0.023969384070 0.035674235273
3.963511111000 -0.046008648434 0.011776843609 0.419023518674 0.901237674837 0.407137290294 0.899515633535 -0.024422893321 0.035969588554
3.963933333000 -0.046695958144 0.013253549941 0.420145013257 0.902961751359 0.409520145731 0.899709226545 -0.023487457072 0.036618058121
3.964355555000 -0.046003225483 0.013626022507 0.423424680964 0.900396013377 0.410525725672 0.898693153320 -0.023337651018 0.036934092224
3.964777777000 -0.045254808812 0.012808421166 0.423608600804 0.898775436944 0.411723113668 0.897424023862 -0.022678974043 0.035533052630
3.965200000000 -0.045875321633 0.013692391560 0.424874101530 0.900341419148 0.412227942688 0.898104930458 -0.023429484378 0.036454321963
3.965622222000 -0.045722798182 0.014238573973 0.427225025517 0.899767803986 0.413483017062 0.897795493610 -0.022864808557 0.037001955518
3.966044444000 -0.045135209474 0.014531320793 0.428990758259 0.899931583092 0.416235053631 0.897750324530 -0.022785962175 0.036331587562
3.966466666000 -0.045497187298 0.014235432403 0.430370699584 0.899876208003 0.418244638825 0.899352045095 -0.022628372061 0.036688906140
3.966888888000 -0.045563196820 0.014718058258 0.431217187588 0.899364426445 0.417965943575 0.898040133760 -0.022161972768 0.036362535058
3.967311111000 -0.045158087589 0.015148481176 0.434642043251 0.899065244363 0.420507457607 0.896216578995 -0.021936736447 0.036334072847
3.967733333000 -0.044604119458 0.015497205524 0.436106735160 0.898516242118 0.422718341529 0.897346998704 -0.021609421324 0.036324051660
3.968155555000 -0.044412907257 0.016041450079 0.436872187440 0.897449242980 0.421624387805 0.897359755070 -0.021713670813 0.036560368673
3.968577777000 -0.044374540856 0.015635687930 0.437966364428 0.897686777609 0.424062370948 0.896142000833 -0.022022085724 0.036189583857
3.969000000000 -0.045102752345 0.013285053308 0.438639718378 0.897253662508 0.429337904416 0.895988360758 -0.022468623458 0.035844083078
3.969422222000 -0.044435972459 0.016719257001 0.442399923966 0.896777417426 0.428525941369 0.896097602548 -0.021049669700 0.037185348599
3.969844444000 -0.044163012135 0.016654318982 0.444999685755 0.895471690632 0.429702850766 0.894675194468 -0.020721536500 0.036373303095
3.970266666000 -0.043807629821 0.016484058260 0.444928116135 0.895268471625 0.431893287418 0.895032637236 -0.020760381170 0.036190766132
3.970688888000 -0.043208495786 0.017111489421 0.447662711853 0.893509795165 0.432453794159 0.894848523745 -0.020007821404 0.036540374885
3.971111111000 -0.043507845132 0.017019279017 0.448830959803 0.893588855331 0.434992804636 0.895132209454 -0.020607601259 0.036651417056
3.971533333000 -0.042842668128 0.017774553512 0.450995573197 0.893238544482 0.436406345698 0.892853429290 -0.019449536702 0.035735240363
3.971955555000 -0.042999459312 0.017606117196 0.451932632362 0.893958541620 0.439001801334 0.893461885212 -0.019852283684 0.036765767449
3.972377777000 -0.042673274424 0.018358529804 0.454474368334 0.891868757137 0.439573320826 0.892614212938 -0.018919981182 0.036251244807
3.972800000000 -0.042500379633 0.018313576898 0.455426913569 0.892063579527 0.440200122660 0.893052314530 -0.019380029905 0.036272668097
3.973222222000 -0.042582170700 0.018318098063 0.455427086454 0.890299589273 0.442516622433 0.892663006583 -0.018714479112 0.037141073995
3.973644444000 -0.041868158328 0.018530980534 0.460239148939 0.890687318584 0.445017298799 0.891479743543 -0.018492863902 0.035721146375
3.974066666000 -0.041553736239 0.018135579207 0.461189744520 0.889615072996 0.444964508545 0.892764348765 -0.018849343039 0.035496685221
3.974488888000 -0.042027121747 0.019466460933 0.462474059121 0.890743532766 0.446260285673 0.890918958697 -0.018453918800 0.036456962531
3.974911111000 -0.042560479930 0.018890623840 0.462132591644 0.888749770766 0.448450390081 0.890239341826 -0.019108371245 0.036323031496
3.975333333000 -0.040837827688 0.018602866446 0.464925910452 0.887636467561 0.450673839175 0.890925826552 -0.018596108973 0.035015971358
3.975755555000 -0.041203183467 0.019253090959 0.467272667377 0.887939669862 0.452567947725 0.888912627354 -0.018579199000 0.035881869962
3.976177777000 -0.040633712605 0.019587887883 0.469410405447 0.887477816947 0.454208052101 0.888774054722 -0.017940203919 0.035910947734
3.976600000000 -0.039230214841 0.020045843572 0.473116702076 0.884758782267 0.457334381446 0.887510237071 -0.016055700584 0.034818367924
3.977022222000 -0.040156713289 0.019848370430 0.471598001295 0.885515685790 0.456280764061 0.887263141025 -0.017060406819 0.034917964892
3.977444444000 -0.039415491984 0.019827425349 0.473915736215 0.885641236772 0.458484807167 0.889264213372 -0.017355470951 0.034627738911
3.977866666000 -0.039804387413 0.019975987688 0.474613233734 0.884014447789 0.460375708567 0.886715299120 -0.016915002119 0.034655914353
3.978288888000 -0.038882504989 0.020513684951 0.477793049556 0.883522396511 0.461399826962 0.886482515155 -0.016685496930 0.034967146834
3.978711111000 -0.039158606936 0.020593003818 0.478395766746 0.883003935508 0.462735952198 0.885002522557 -0.016103620072 0.034257159663
3.979133333000 -0.039378853589 0.019547808117 0.480671944447 0.880033744359 0.466838816000 0.882826503599 -0.016749756839 0.034296855299
3.979555555000 -0.038728509767 0.019965710903 0.481961575529 0.880191347336 0.467190613121 0.884808266213 -0.016538683683 0.034464755794
3.979977777000 -0.037798320785 0.020486098371 0.484110870385 0.879940061572 0.467568246245 0.884569903314 -0.015908208335 0.033431125513
3.980400000000 -0.038733596135 0.021390563801 0.484314113247 0.880617701090 0.468333546576 0.882896102358 -0.016094756361 0.034560501437
3.980822222000 -0.037320127819 0.020288482422 0.486522929032 0.878978271093 0.472253955143 0.883758873386 -0.016130229468 0.033236551082
3.981244444000 -0.038114587639 0.020071896819 0.486703143136 0.877190780126 0.473933037682 0.880770164165 -0.016187623981 0.033161289451
3.981666666000 -0.037107024577 0.019629313070 0.489772361170 0.876104216186 0.475866657737 0.882958601744 -0.017268106485 0.032572637294
3.982088888000 -0.036697578867 0.020357085703 0.490987351307 0.875958103412 0.476741674790 0.882162571267 -0.015984391934 0.032263716216
3.982511111000 -0.037295131785 0.020333716993 0.492215494129 0.874866143104 0.478026702334 0.879864181231 -0.016484125598 0.032655833230
3.982933333000 -0.036385605125 0.020751443172 0.493769283980 0.874979374694 0.480543991046 0.881368123483 -0.015712682112 0.032601291591
3.983355555000 -0.036318970565 0.020603965747 0.496201049126 0.873705459603 0.481775573847 0.880767832088 -0.015626581252 0.032218264485
3.983777777000 -0.035825677358 0.020852934356 0.498080497975 0.873304156444 0.483767323128 0.878989735701 -0.015434256400 0.032152478729
3.984200000000 -0.035911876363 0.022610448381 0.497255134399 0.873647958087 0.481464553544 0.876320924509 -0.014273636274 0.032056337796
3.984622222000 -0.035279505581 0.020133683243 0.501184739246 0.870396301987 0.488350145691 0.877370396076 -0.015752214700 0.031734812829
3.985044444000 -0.035371268466 0.020334645769 0.502189151113 0.870119617889 0.489302603031 0.876143887606 -0.015638246346 0.031949144748
3.985466666000 -0.034925150052 0.020696514900 0.502998697296 0.868633421607 0.489936878029 0.876697628530 -0.015802480991 0.031586215341
3.985888888000 -0.033959820300 0.020587542961 0.507628365997 0.867511654829 0.492500312278 0.875770958281 -0.015557483377 0.030887926072
3.986311111000 -0.034367192730 0.021078743185 0.506821238666 0.867924018361 0.492442798580 0.875161758832 -0.014719460022 0.030880518064
3.986733333000 -0.034915493186 0.021326476665 0.506966127678 0.867601889383 0.492945608128 0.872740125840 -0.014903842421 0.030885193420
3.987155555000 -0.033534966178 0.020894458527 0.510673261112 0.865964723434 0.494866067041 0.873388345504 -0.014539523132 0.030309183769
3.987577777000 -0.033346624370 0.020666174260 0.511805717203 0.865452048139 0.498103384052 0.872620322983 -0.014574693030 0.029731082595
3.988000000000 -0.033630232278 0.020248142609 0.512617578111 0.862785589912 0.499238623913 0.871229111867 -0.015090329835 0.030093959189
3.988422222000 -0.033723721178 0.020558791598 0.515028125333 0.863092336096 0.501375467827 0.870153924015 -0.016021561317 0.029568663916
3.988844444000 -0.032568663545 0.020475130528 0.517254316896 0.861989166492 0.503098662601 0.870579886466 -0.015113853113 0.029994181390
3.989266666000 -0.032632019546 0.020834425656 0.517694580089 0.862741065747 0.505000696258 0.870392890869 -0.015366898024 0.029428859507
3.989688888000 -0.032884961907 0.020869831236 0.519306605831 0.860798947082 0.505079722329 0.867620979054 -0.015395279185 0.029545569005
3.990111111000 -0.032578533009 0.019684809963 0.520539219107 0.857451448654 0.509156345345 0.865779170867 -0.015604008863 0.029858878722
3.990533333000 -0.032081801438 0.019919454003 0.522183445581 0.857714880074 0.508828432958 0.866581947820 -0.014468475570 0.028479006834
3.990955555000 -0.031807869765 0.020418881885 0.525152637170 0.857827120871 0.509686019413 0.865603781340 -0.014702180821 0.027993989607
3.991377777000 -0.032075591509 0.020282725818 0.525523851373 0.855984923015 0.511230211988 0.864650245904 -0.015326280892 0.028342572548
3.991800000000 -0.031364148537 0.020029956880 0.527135351097 0.854853808589 0.513932699412 0.863946952074 -0.014276515729 0.028790864803
3.992222222000 -0.031461736003 0.019705144400 0.529315239996 0.854075307288 0.515608055836 0.863279731599 -0.015491691992 0.027302429186
3.992644444000 -0.031653910048 0.019871475825 0.529659722266 0.853128091121 0.516402425572 0.861732925656 -0.014958043220 0.027612951236
3.993066666000 -0.030934139719 0.019534216587 0.532336622412 0.852848821440 0.518259877442 0.862156535232 -0.014670903286 0.026659194344
3.993488888000 -0.030819729287 0.019116642430 0.534035865188 0.851247052723 0.519419124596 0.860727890298 -0.014866824334 0.026897059498
3.993911111000 -0.030889080318 0.018811411219 0.535090418949 0.849582810899 0.522279352057 0.859141262005 -0.015479357755 0.026825081835
3.994333333000 -0.030942867275 0.018517976908 0.535813296479 0.848992462838 0.525259297287 0.858670935550 -0.015536094343 0.026662219263
3.994755555000 -0.031453311482 0.019190054084 0.537544473745 0.847965045181 0.525008670296 0.855943373403 -0.016053156934 0.026584658349
3.995177777000 -0.030512133010 0.018665058147 0.538966435457 0.846087085089 0.527129090581 0.856448859248 -0.016505804370 0.026159822677
3.995600000000 -0.030723723266 0.019165309452 0.539364571716 0.845994020958 0.526712051985 0.855450427056 -0.015093633666 0.026913941983
3.996022222000 -0.030552148930 0.018446470144 0.541875671893 0.844238565723 0.530480291921 0.853884081103 -0.016473155686 0.026046149942
3.996444444000 -0.030094956541 0.018468005045 0.542678728442 0.844367968412 0.531320581377 0.854858692321 -0.015509340056 0.025623412640
3.996866666000 -0.029780720870 0.018483931777 0.545288043713 0.843430991734 0.534423706454 0.853784329697 -0.016555792189 0.025711927415
3.997288888000 -0.030033698792 0.018288305822 0.546219200413 0.842373251814 0.533193056274 0.851924166728 -0.015945572780 0.025325165345
3.997711111000 -0.029832663476 0.017972152932 0.547602491082 0.840768349506 0.537092787874 0.851953421712 -0.016321308484 0.025032219204
3.998133333000 -0.029766098315 0.018291648008 0.548405432755 0.840684364211 0.537694672666 0.850958061988 -0.016223588194 0.025177065902
3.998555555000 -0.029740768427 0.018234680767 0.550801264124 0.839261717073 0.539847336426 0.849370621684 -0.016975363431 0.025212000326
3.998977777000 -0.029787062479 0.018275072110 0.551136694178 0.838186777647 0.538773326108 0.847571881583 -0.016183076758 0.025157398091
3.999400000000 -0.029686803594 0.017558388530 0.552162807000 0.837973120805 0.543366138043 0.847727529621 -0.017349018560 0.024808168858
3.999822222000 -0.029649355507 0.017445163071 0.553682018069 0.834369210318 0.543069129630 0.846793398381 -0.016876125046 0.024898083159
4.000244444000 -0.029785003597 0.017812373419 0.554278116601 0.833776682869 0.542039760142 0.845117535721 -0.016537165981 0.025364001422
4.000666666000 -0.029446918354 0.017265813460 0.555825726902 0.832678789499 0.545348912459 0.844789977697 -0.016851869948 0.024545836474
4.001088888000 -0.029056612726 0.017340955344 0.557831496393 0.832112897693 0.546810834783 0.844137935358 -0.016786435378 0.024379732822
4.001511111000 -0.029417867480 0.016634929376 0.558665839693 0.831074094102 0.548498056441 0.842407540985 -0.016700208451 0.023781101252
4.001933333000 -0.029652812661 0.017721809977 0.558385063797 0.830042968283 0.548550216694 0.842068299996 -0.017327110707 0.024619179202
4.002355555000 -0.029522939494 0.016834578886 0.560705628568 0.828876738640 0.550160167456 0.840108954087 -0.017111799863 0.023810146201
4.002777777000 -0.029974753027 0.017930042272 0.562796388041 0.827804777474 0.551143327237 0.839320880813 -0.018501506638 0.024377528280
4.003200000000 -0.029466542956 0.016643712165 0.564882084405 0.827264401521 0.554487949655 0.837732199821 -0.017308161015 0.023980332235
4.003622222000 -0.029646088595 0.016677070108 0.565239580291 0.826181286721 0.556036702374 0.835348250786 -0.018067373718 0.024305922554
4.004044444000 -0.029637753568 0.017047913573 0.567890498711 0.824871918636 0.556458974057 0.834198325297 -0.018115885196 0.023950062199
4.004466666000 -0.030175310691 0.016551981392 0.565373298727 0.823587195268 0.556766645338 0.835546356335 -0.017704750081 0.023356146782
4.004888888000 -0.029403843709 0.016698411210 0.569707065414 0.822934691537 0.558960312721 0.832388789190 -0.018035385563 0.024259635842
4.005311111000 -0.029349540303 0.016360512000 0.570159546761 0.821908998721 0.560189764967 0.834328135209 -0.017707273102 0.023026885352
4.005733333000 -0.029786447631 0.016430547669 0.572278206372 0.820949590608 0.562577997785 0.830698797947 -0.018487334316 0.023252641173
4.006155555000 -0.029621257918 0.015803601828 0.572566008344 0.820153708959 0.563619505507 0.831167560933 -0.017675233071 0.023267654900
4.006577777000 -0.029953388951 0.015820581023 0.573874735641 0.818994488459 0.566566039627 0.829623081517 -0.018461640970 0.022736505143
4.007000000000 -0.028388038108 0.016504500978 0.569643887399 0.821227008499 0.568470022183 0.837701640917 -0.016977087638 0.022713582075
4.007422222000 -0.029953364622 0.015605289109 0.576343591473 0.815856720489 0.567962517329 0.826428482104 -0.018463194783 0.023178821689
4.007844444000 -0.030142344418 0.015660341870 0.577998222264 0.813331489147 0.569726632210 0.823760480825 -0.019001710639 0.024072696780
4.008266666000 -0.030125280264 0.016246639669 0.578139554841 0.813128422871 0.569483945342 0.825056612149 -0.019385385309 0.023664649518
4.008688888000 -0.030172150382 0.015708563884 0.581686638688 0.813087746339 0.573469681632 0.823309569599 -0.019990708349 0.022920770813
4.009111111000 -0.030926697271 0.015494917766 0.582418453698 0.812770393091 0.574307639431 0.821293222530 -0.019422268996 0.021848184652
4.009533333000 -0.029993187727 0.015493552052 0.583434444117 0.808996692390 0.574082723308 0.820735793503 -0.019638798312 0.023195443447
4.009955555000 -0.030674241211 0.015791117198 0.584374793211 0.809084163123 0.575427768211 0.818294396874 -0.019902767475 0.022805639984
4.010377777000 -0.030146178989 0.015620094000 0.584160116396 0.806690047487 0.575309268700 0.821309297407 -0.019402262209 0.022501133593
4.010800000000 -0.031049106192 0.015418719380 0.584275816415 0.806770688024 0.577216419492 0.818323007463 -0.019223256634 0.023028319205
