# GHZ S RI R 50.000000000000
3.950000000000 -0.051420429430 -0.001780133075 0.343853008216 0.918180595132 0.374276598182 0.900437872264 -0.030356844165 0.023830824768
3.950422222000 -0.050333643596 -0.000556186956 0.352781411559 0.915759128846 0.372048470299 0.901764676838 -0.031064129142 0.025329194364
3.950844444000 -0.049064031827 0.001560476364 0.362051757147 0.913312462039 0.370204944503 0.902247713480 -0.029493630849 0.026078573133
3.951266666000 -0.049886955935 0.001958756786 0.366354939489 0.913325367951 0.370393717375 0.902328414777 -0.030422947537 0.028088895620
3.951688888000 -0.047601635582 0.001634513803 0.371480831148 0.908498691062 0.372830239174 0.903867361460 -0.030020903969 0.028155055489
3.952111111000 -0.047910992012 0.002867365426 0.375236169785 0.910326013902 0.371272766571 0.902515904545 -0.029300364210 0.028288514753
3.952533333000 -0.047455899085 0.002754032188 0.375883122587 0.908719514148 0.373685212328 0.901009833248 -0.028388817583 0.028438649513
3.952955555000 -0.047997883781 0.003959889869 0.379713814601 0.908579539875 0.374664048267 0.903335818074 -0.029112432843 0.030057760549
3.953377777000 -0.048083188804 0.003604858889 0.381736465494 0.907754360658 0.375702998025 0.904697754152 -0.029239485945 0.031072592328
3.953800000000 -0.048836318885 0.005308893754 0.382637390358 0.911954209375 0.376636096118 0.902877719765 -0.027859353719 0.031608856204
3.954222222000 -0.047621765070 0.005150024560 0.386119353504 0.908525501836 0.378144057918 0.903641317998 -0.027928467647 0.031438290955
3.954644444000 -0.047617571452 0.005164997680 0.387653602068 0.905644189095 0.379820175354 0.903782664139 -0.027905016325 0.031534123088
3.955066666000 -0.048919983247 0.005950943004 0.389270895592 0.906207819455 0.378257253064 0.904335130665 -0.028399588741 0.032079587271
3.955488888000 -0.048221313545 0.005115530865 0.388594702876 0.904954230202 0.381058332845 0.902844416740 -0.028534794502 0.030487744777
3.955911111000 -0.047755640744 0.006287606626 0.391157163956 0.905865884030 0.382817017342 0.902641266019 -0.026940612010 0.031653016538
3.956333333000 -0.048562910849 0.005264199196 0.391397524531 0.901103461906 0.383683486602 0.902322078300 -0.026688783669 0.032019033465
3.956755555000 -0.047806899745 0.006314600838 0.393760697179 0.906458836484 0.386367533717 0.901972180903 -0.026683201861 0.031772613018
3.957177777000 -0.047485655806 0.006530977694 0.395721778523 0.904950651549 0.387780704728 0.902389936740 -0.026768937064 0.032737706216
3.957600000000 -0.047992135397 0.006828950449 0.395985320511 0.905277075265 0.387564587909 0.899994227161 -0.026573651274 0.031549853975
3.958022222000 -0.048284000739 0.006159673016 0.396454805413 0.903688169892 0.389962471729 0.900139642009 -0.027281136341 0.032134769429
3.958444444000 -0.048379742198 0.008835407693 0.399776883901 0.905863152043 0.388694909059 0.901179423266 -0.025990969451 0.033313535947
3.958866666000 -0.048412807564 0.007706575749 0.400724744971 0.907315891751 0.391419350118 0.904038665432 -0.027273920216 0.033218437831
3.959288888000 -0.048718273063 0.008537350384 0.402137490024 0.904282110525 0.392914192683 0.901344337862 -0.026355573686 0.033645406807
3.959711111000 -0.048420713692 0.007995406297 0.403158385681 0.905102757769 0.395428071851 0.900957948433 -0.026408563933 0.033545393454
3.960133333000 -0.048019890760 0.008238414836 0.403626705569 0.902696511161 0.396353430275 0.900027973640 -0.025731755728 0.033336366286
3.960555555000 -0.048328429291 0.008999241859 0.406032921261 0.903896512881 0.399224376739 0.900116820308 -0.025002285519 0.033688011061
3.960977777000 -0.048781499690 0.009973204794 0.407311687975 0.905383725834 0.398074525490 0.900999460030 -0.025166564471 0.034019819393
3.961400000000 -0.047000287046 0.009587493659 0.407696378142 0.902256384143 0.397925055087 0.901866915680 -0.024494030453 0.033377776017
3.961822222000 -0.048068764672 0.009938908707 0.410852207773 0.902135941251 0.401158136925 0.900155844547 -0.024941702294 0.033735159207
3.962244444000 -0.047834042541 0.010397221021 0.413696968814 0.902529879408 0.401891743813 0.899259616513 -0.024806533091 0.033819472646
3.962666666000 -0.047489293692 0.010933002651 0.414789385916 0.903347427501 0.405665734639 0.901600078340 -0.024820434808 0.033947896221
3.963088888000 -0.048021950074 0.011055030837 0.413951610728 0.902001643576 0.405352742784 0.897704597274 -0.024261865154 0.033953575455
3.963511111000 -0.047588079554 0.011118328882 0.416492604647 0.902483181501 0.406468188164 0.899802318916 -0.024447547348 0.034245652859
3.963933333000 -0.047915328360 0.011723274634 0.417140808488 0.900854790175 0.409884587631 0.898365223059 -0.023203931061 0.034418034108
3.964355555000 -0.048017384160 0.012552697323 0.419249734584 0.901718187542 0.408695987812 0.897266573009 -0.023269958925 0.034648900659
3.964777777000 -0.046888406094 0.012806791544 0.422130815098 0.902400598262 0.410077569213 0.898820418126 -0.022938396200 0.034078194099
3.965200000000 -0.046879165493 0.012797497599 0.424224710541 0.900416664721 0.412372687898 0.897613107410 -0.022694881824 0.034529318064
3.965622222000 -0.047134607962 0.013671791435 0.425571931061 0.901130332267 0.412557796235 0.898092397466 -0.022764676956 0.035105533898
3.966044444000 -0.046184654195 0.013437142591 0.427514392527 0.899647489888 0.416447136966 0.897431290026 -0.022410154765 0.034429598752
3.966466666000 -0.046951099046 0.012972404564 0.427599320057 0.899056837118 0.417469345968 0.898766778920 -0.022555689970 0.034354072376
3.966888888000 -0.046306348775 0.013749978033 0.430560104337 0.898439229884 0.418476427144 0.898423332287 -0.021963451841 0.034341114366
3.967311111000 -0.046522779057 0.014235219520 0.432235403576 0.899028185885 0.419992034312 0.896208672287 -0.021937770239 0.034292216026
3.967733333000 -0.045917137960 0.014143449164 0.433383107046 0.897620103884 0.422619260846 0.896464988308 -0.021277730892 0.034232084583
3.968155555000 -0.045480607704 0.015090780911 0.435649688136 0.897705943492 0.421285234184 0.897079931560 -0.021252311737 0.034561338391
3.968577777000 -0.045469419961 0.014676392201 0.436494381928 0.897628813235 0.423729937701 0.895982696253 -0.021688288910 0.034180788049
3.969000000000 -0.046608792068 0.011972795379 0.435142644643 0.896779424835 0.428929845214 0.895005086245 -0.022356203379 0.033681471470
3.969422222000 -0.045730641176 0.015727615541 0.440565835933 0.897281515231 0.427884796883 0.895428361222 -0.020525202265 0.034974360792
3.969844444000 -0.045784455014 0.015627659646 0.441471068972 0.896227396253 0.429115654124 0.894231824677 -0.020734900840 0.034532089048
3.970266666000 -0.045225598554 0.015528381073 0.442070926004 0.895861668153 0.431496077187 0.894966612893 -0.020754964955 0.034341826319
3.970688888000 -0.044922813271 0.016450631545 0.444802540616 0.895225540263 0.431345229500 0.894707057902 -0.019853605251 0.034714182188
3.971111111000 -0.044997136732 0.016210917508 0.445939418594 0.894715097058 0.434291773585 0.894904016366 -0.020580412597 0.034724022962
3.971533333000 -0.044256627003 0.017373264167 0.449324475172 0.895729887962 0.435194000264 0.892964602084 -0.019035703413 0.033650923007
3.971955555000 -0.043882804299 0.016258467386 0.450646511709 0.892351746470 0.438800018119 0.893198010501 -0.019618786486 0.034428353500
3.972377777000 -0.044065744649 0.017746494163 0.452103170315 0.893581625875 0.439065539743 0.892643840434 -0.018666688326 0.034353274535
3.972800000000 -0.043708490967 0.017446047683 0.453633752979 0.892473671856 0.439760630974 0.892783569703 -0.019077154350 0.034155468375
3.973222222000 -0.043309637625 0.018174938776 0.455472762010 0.892688957347 0.442388588530 0.893589691498 -0.018348973078 0.035589640822
3.973644444000 -0.043829993730 0.017722355784 0.456140455881 0.892360072299 0.443782813102 0.891162603239 -0.018445346319 0.033679614237
3.974066666000 -0.042609771147 0.017183291637 0.459331252605 0.889558709731 0.444973124302 0.892747345217 -0.018785747392 0.033472919778
3.974488888000 -0.043016292767 0.018233178063 0.460477332948 0.889896051713 0.446165694075 0.890826508769 -0.018314703499 0.034377490514
3.974911111000 -0.043145132575 0.018205075410 0.462134170047 0.889339273608 0.448386688487 0.890339743427 -0.018559358184 0.034291409101
3.975333333000 -0.041689680856 0.017850075305 0.463785563659 0.888468429405 0.450832855869 0.891113888063 -0.018377996572 0.033353427367
3.975755555000 -0.042559637820 0.018215140786 0.464648608703 0.888391587543 0.451958526984 0.888796770930 -0.018508179574 0.033912832836
3.976177777000 -0.041878737634 0.018529216756 0.467246564090 0.887490451970 0.453574778458 0.888600885498 -0.017689359475 0.033772789537
3.976600000000 -0.041187747822 0.019976215296 0.469901427551 0.888318529272 0.455553689607 0.888159454550 -0.016059859413 0.032914857527
3.977022222000 -0.041074595805 0.018896651200 0.470187031537 0.885608927022 0.456080134915 0.887395367977 -0.017110599070 0.033010507541
3.977444444000 -0.040956754493 0.018817280199 0.470704834114 0.886700759873 0.457848821355 0.889017165619 -0.017161554476 0.032714235510
3.977866666000 -0.040904379961 0.019189038563 0.473121788653 0.885119135662 0.459850980561 0.886576590979 -0.016400895525 0.032651944925
3.978288888000 -0.040300414931 0.019481993386 0.474999903445 0.884371584580 0.460958714858 0.886084193480 -0.016383333583 0.033130396124
3.978711111000 -0.040214680938 0.019109194429 0.475732688552 0.882170667536 0.462595110292 0.884626381596 -0.015862839495 0.032319303535
3.979133333000 -0.041131211257 0.019302489344 0.477770042160 0.882823837595 0.465961975052 0.883210688849 -0.016467865400 0.032479206538
3.979555555000 -0.039973005867 0.019120953208 0.479640944639 0.881356522563 0.466708689132 0.884655486914 -0.016231033425 0.032455071348
3.979977777000 -0.038935329284 0.019449294276 0.481898937352 0.880100632777 0.467025627783 0.884561741279 -0.015897494249 0.031390100481
3.980400000000 -0.039754326842 0.019979587579 0.481877328487 0.879874440883 0.467979167068 0.882683130012 -0.016020162177 0.032460130400
3.980822222000 -0.038294429396 0.019175361517 0.484736975776 0.878839421115 0.471667073248 0.883634353291 -0.015805310852 0.030985481774
3.981244444000 -0.038621554170 0.019310743010 0.486580628630 0.877576896401 0.473686240528 0.880582517863 -0.015916465287 0.030746629313
3.981666666000 -0.038747004218 0.018724907428 0.486367891720 0.877390541443 0.475108045241 0.883098791562 -0.016981754856 0.030917652244
3.982088888000 -0.037454713690 0.019520533255 0.489976538002 0.876505801012 0.476223976869 0.882173234602 -0.015675229257 0.030216625351
3.982511111000 -0.038305208549 0.019491943474 0.490775510277 0.875773437113 0.477382823565 0.880245214788 -0.016295622450 0.030634923717
3.982933333000 -0.037146385223 0.019770281185 0.492772702970 0.875031737529 0.479815244800 0.881184479280 -0.015266031485 0.030335417619
3.983355555000 -0.037288066250 0.019827409267 0.494832347858 0.874499864573 0.480824602531 0.880745228426 -0.015551589758 0.030090960810
3.983777777000 -0.036764669451 0.019810603982 0.496371011954 0.873386438768 0.483066573579 0.879025250565 -0.015606324747 0.030175859842
3.984200000000 -0.036393656896 0.020914625634 0.495912278555 0.871817485899 0.480943797887 0.876266167339 -0.014337987070 0.030255463626
3.984622222000 -0.036535848434 0.019183813311 0.499021426501 0.871242000543 0.487349706735 0.877502487658 -0.015698866844 0.029655483353
3.985044444000 -0.036288228818 0.019431836295 0.500469319172 0.870514875889 0.488774147031 0.876274791095 -0.015266558374 0.029756673030
3.985466666000 -0.035602800856 0.019708896137 0.502001452095 0.869144138601 0.489707380662 0.876489824195 -0.015644569135 0.029371735953
3.985888888000 -0.035584708647 0.019175807495 0.503282111186 0.867767128848 0.492176359611 0.875765529625 -0.015133989921 0.029234995878
3.986311111000 -0.035273484343 0.020072242396 0.505151990570 0.868487438523 0.492034524218 0.875151146367 -0.014514423924 0.028705641849
3.986733333000 -0.035711931223 0.020410036959 0.505667227506 0.868218692998 0.492369270900 0.872611768282 -0.014872665139 0.028778116113
3.987155555000 -0.034705343894 0.019672465076 0.507791584395 0.866288805009 0.494518326299 0.873175827210 -0.014476620361 0.028412172195
3.987577777000 -0.034149606442 0.019357771674 0.509861033734 0.865148659483 0.497742538328 0.872535429650 -0.014437784979 0.027778146274
3.988000000000 -0.034802820081 0.019349774731 0.510227844303 0.863944537954 0.498890171106 0.871295002286 -0.014741222103 0.028049242533
3.988422222000 -0.034614374321 0.019352699110 0.513043837247 0.863235562667 0.500785021260 0.870144402693 -0.015900279577 0.027618429444
3.988844444000 -0.033440186295 0.019206426088 0.515206967598 0.861990393568 0.502711978223 0.870368170808 -0.014869480358 0.027759788241
3.989266666000 -0.033381933655 0.019718680429 0.516141336057 0.862967262885 0.504342782065 0.870426545983 -0.015157739168 0.027473556671
3.989688888000 -0.033863926205 0.019634570537 0.517152572982 0.860973966731 0.504657723594 0.867758655610 -0.015183733266 0.027457884559
3.990111111000 -0.033445942117 0.019010354007 0.519369105278 0.858945898558 0.508729656486 0.865642635633 -0.015217135063 0.027702465488
3.990533333000 -0.033210486628 0.019009049865 0.520021486362 0.858981721572 0.508243200728 0.866462948227 -0.014225277644 0.026681591721
3.990955555000 -0.032787446164 0.018783460087 0.522267162030 0.857536029483 0.509240606660 0.865810801803 -0.014624037096 0.026116974176
3.991377777000 -0.033087285194 0.018861604072 0.523143244997 0.856539146217 0.510742703996 0.864589166025 -0.015237851585 0.026338419521
3.991800000000 -0.031838585454 0.018864577045 0.525848523884 0.854733504869 0.513558617389 0.863334807110 -0.014309805614 0.026592130341
3.992222222000 -0.032572857435 0.018264145983 0.526687955863 0.854471271862 0.515338279629 0.863653411251 -0.015226245083 0.025313523548
3.992644444000 -0.032455010504 0.018621412229 0.527733721185 0.853380379561 0.515617620577 0.861850980492 -0.014946799245 0.025792097763
3.993066666000 -0.031613289368 0.018263200200 0.530497617996 0.853095008436 0.517710493224 0.861962017169 -0.014540923748 0.024522600339
3.993488888000 -0.031568251174 0.017796568706 0.531946447660 0.851290398916 0.518761006926 0.860543950277 -0.014813690750 0.024851652704
3.993911111000 -0.031638301488 0.017527724117 0.533225747592 0.849707769743 0.521670710144 0.858686570581 -0.015482278639 0.024694057286
3.994333333000 -0.031586736215 0.017342695951 0.534290617951 0.849225034471 0.524602002990 0.858425590947 -0.015416964094 0.024511361563
3.994755555000 -0.032078612683 0.017951379113 0.535762200221 0.848289540298 0.524460173544 0.856203234991 -0.015879852206 0.024598054637
3.995177777000 -0.031607794407 0.017761994905 0.536981214656 0.847594357289 0.527132559399 0.856122648823 -0.016250323460 0.024092116385
3.995600000000 -0.031347486870 0.017995003121 0.537690760270 0.846660509214 0.526248106286 0.855017416230 -0.014950552978 0.024939321097
3.996022222000 -0.031346153259 0.017216688657 0.540079563290 0.844900691969 0.530058768832 0.853366275933 -0.016362471972 0.023935816236
3.996444444000 -0.030808465134 0.017262897719 0.540929460487 0.844527315757 0.530129874950 0.854684658287 -0.015538348717 0.023556317808
3.996866666000 -0.030599490191 0.017281748130 0.543369624938 0.844115264892 0.533898259560 0.853809433726 -0.016328089798 0.023753039439
3.997288888000 -0.030768318895 0.017251171246 0.544419120438 0.843118136651 0.532714118649 0.852008273951 -0.015744983624 0.023354938911
3.997711111000 -0.030522533761 0.016689525861 0.545749895020 0.841256257327 0.536563084773 0.851866104296 -0.016187268617 0.023114581102
3.998133333000 -0.030339718359 0.016828845233 0.546468424120 0.840730951849 0.537184442236 0.850799797897 -0.016250192710 0.023106991713
3.998555555000 -0.030256874587 0.016837862072 0.548970340323 0.839255142893 0.538898724136 0.849544768208 -0.016878576861 0.023220933168
3.998977777000 -0.030394112463 0.017045330760 0.549177443791 0.838644614457 0.538157467083 0.847711201637 -0.016140815018 0.023138014862
3.999400000000 -0.029939870067 0.016964179788 0.550881582570 0.838528608291 0.542245188056 0.849325025264 -0.017089607711 0.022891840726
3.999822222000 -0.030380184955 0.015747963791 0.551868973128 0.834618649402 0.542829212276 0.845656754943 -0.016882808029 0.022716694565
4.000244444000 -0.030390715587 0.016582970030 0.552492666713 0.834580433494 0.542804429600 0.844711138034 -0.016331066099 0.023220957136
4.000666666000 -0.029989928523 0.016124244263 0.554026524640 0.833481311939 0.545349537703 0.845587042647 -0.016618441222 0.022596015146
4.001088888000 -0.029453821435 0.016170561437 0.556205643808 0.832501589751 0.546851940121 0.844597803377 -0.016639756373 0.022328821745
4.001511111000 -0.030396628341 0.015736368247 0.556904765589 0.831956981030 0.547422194333 0.842589519649 -0.016513690418 0.021808708074
4.001933333000 -0.030138659384 0.016480680448 0.556488704393 0.830348755378 0.547618563820 0.842497852768 -0.017232580038 0.022687515650
4.002355555000 -0.030276057036 0.015526456854 0.558671724197 0.829481044144 0.550283546155 0.840513616388 -0.017008766322 0.021837668780
4.002777777000 -0.030056433967 0.016135574394 0.560832037650 0.827913720574 0.551849273807 0.839736104979 -0.018407303958 0.022335797119
4.003200000000 -0.030065334833 0.015054482949 0.562839377852 0.827717260038 0.553853382834 0.837191960228 -0.017246408459 0.022061749371
4.003622222000 -0.030103258629 0.015489385656 0.563219877371 0.826601100680 0.555341603481 0.835931232278 -0.018006526867 0.022296907166
4.004044444000 -0.030342632851 0.015819685312 0.566086179685 0.825511510038 0.555466621985 0.834013005051 -0.018018292618 0.021994213601
4.004466666000 -0.030992614090 0.014813114720 0.563433295183 0.824143621283 0.556886761309 0.834616556787 -0.017593242606 0.021272390746
4.004888888000 -0.030278336241 0.015370455464 0.567780295974 0.823647605806 0.558498117685 0.831894240708 -0.017945489384 0.022326593231
4.005311111000 -0.029829394383 0.015058378282 0.568470666285 0.822393737863 0.560203325374 0.834442472736 -0.017651347867 0.021075243949
4.005733333000 -0.030669213386 0.014903342181 0.570502429865 0.821490040620 0.561841327722 0.829836645738 -0.018428877935 0.021291616905
4.006155555000 -0.030257583930 0.014076752831 0.570746752072 0.820596390084 0.563865581234 0.830194940944 -0.017627515878 0.021288270191
4.006577777000 -0.030478155605 0.014109450624 0.572274746219 0.819552493157 0.566616455511 0.829719227158 -0.018356032000 0.020842830719
4.007000000000 -0.029939288933 0.013657495706 0.567897076580 0.821571460840 0.568446178810 0.833729082677 -0.016993918100 0.020735010229
4.007422222000 -0.030406295343 0.014254298488 0.574466011396 0.816232048548 0.567728696029 0.827009551186 -0.018432095644 0.021253112408
4.007844444000 -0.030412570697 0.014308211900 0.576138445897 0.814193332317 0.569826273863 0.824561580246 -0.018810726957 0.022193802128
4.008266666000 -0.030700545505 0.014585020354 0.576403596847 0.813387516392 0.569110543266 0.825273326931 -0.019449315932 0.021740964384
4.008688888000 -0.030955780222 0.014322556378 0.580254996881 0.813879247451 0.573040929890 0.822732852624 -0.019864211484 0.020889167810
4.009111111000 -0.031674431504 0.013856143031 0.580786147765 0.813429634939 0.574291468609 0.821003496927 -0.019357840709 0.019897892420
4.009533333000 -0.030550431390 0.014460169569 0.581911341980 0.809817303569 0.571825117645 0.821533307413 -0.019431002211 0.021317179083
4.009955555000 -0.031199041249 0.014015485528 0.582833958486 0.809919705155 0.575096691479 0.818174427896 -0.019823566677 0.020911509301
4.010377777000 -0.030678606184 0.013746635505 0.582588903413 0.807403818274 0.574995750340 0.820077167758 -0.019287274044 0.020607238758
4.010800000000 -0.031277535521 0.014049335988 0.582157666038 0.808050860368 0.577444160433 0.818540570497 -0.019014826589 0.021263242410
