# GHZ S RI R 50.000000000000
3.950000000000 0.145591473492 -0.413424785562 0.765262039507 0.374859301875 0.772290463203 0.336370094720 0.202432486559 -0.397170968393
3.950422222000 0.146283396605 -0.413812548664 0.770405832670 0.365835424796 0.770514977214 0.337980573210 0.197745664908 -0.399424885805
3.950844444000 0.147138314238 -0.412870039037 0.771957746886 0.360975231393 0.768883629743 0.338299108592 0.194560953883 -0.400431469715
3.951266666000 0.146335413516 -0.414008228169 0.774788431123 0.357062863686 0.768994830612 0.337389079234 0.191816131294 -0.400111513803
3.951688888000 0.145508110862 -0.415618703390 0.775395856535 0.352509588532 0.768558585641 0.337951171306 0.189901188857 -0.400521228669
3.952111111000 0.145306490294 -0.415313093386 0.777752729594 0.348801127704 0.768655317932 0.337086764323 0.188234091121 -0.402004762643
3.952533333000 0.144971623090 -0.415754378216 0.778359398108 0.347398552005 0.769277521800 0.335662837012 0.187374093486 -0.401880583485
3.952955555000 0.144208376631 -0.415808492882 0.779646249472 0.344236537460 0.770005812526 0.335567376929 0.186303349851 -0.402027418334
3.953377777000 0.143524474950 -0.415877275805 0.780407844239 0.344448853337 0.770633697154 0.335431167276 0.186645457437 -0.401853402633
3.953800000000 0.143317225542 -0.414771526096 0.781279231310 0.342559694769 0.771464815795 0.332810102414 0.185139274113 -0.403507005428
3.954222222000 0.143187514624 -0.416267839841 0.782702846933 0.340927609752 0.771233823442 0.333576557085 0.184982792113 -0.402570581913
3.954644444000 0.142061251993 -0.416218377170 0.782947729503 0.340194062084 0.771939876304 0.331769992696 0.184874358619 -0.403242986408
3.955066666000 0.141211608718 -0.415871524685 0.784716591801 0.337666661138 0.772355096737 0.331752034142 0.184791121905 -0.403191929279
3.955488888000 0.141064452002 -0.417131604729 0.785489943995 0.336853308940 0.773238938501 0.331088515718 0.183101974920 -0.403933657512
3.955911111000 0.141984786524 -0.416053407894 0.785373526772 0.338709626628 0.773638842671 0.330146631783 0.183602903283 -0.403704792453
3.956333333000 0.139866579564 -0.417801456455 0.786290964015 0.335294640891 0.774945236465 0.329727362845 0.183713020308 -0.402923385223
3.956755555000 0.140239776247 -0.417699867765 0.787452046390 0.334332845658 0.775274729035 0.328368095181 0.181658228643 -0.404321566253
3.957177777000 0.139375701085 -0.417564486661 0.786466588396 0.333987466061 0.775687265836 0.326958707928 0.181953054768 -0.403820282962
3.957600000000 0.139788553711 -0.416950278486 0.789949607940 0.332664511024 0.776225773196 0.326071994975 0.180457686870 -0.405398776838
3.958022222000 0.138880640438 -0.418215690723 0.790827941018 0.332160295841 0.777229492252 0.325084629002 0.180177075430 -0.405088723838
3.958444444000 0.139052967536 -0.416008715007 0.790141512930 0.329995322581 0.777005827868 0.324099519343 0.179953672094 -0.405830201293
3.958866666000 0.138464317346 -0.418156031957 0.791193266646 0.330471112260 0.779653912950 0.323969257918 0.179473453057 -0.405977459825
3.959288888000 0.137623486527 -0.417636626870 0.793970706759 0.329081944092 0.779379222363 0.322128222118 0.180066942697 -0.406193033288
3.959711111000 0.137427201465 -0.419147966791 0.793829616541 0.328155563100 0.780399291378 0.321254873164 0.177851901038 -0.405804999096
3.960133333000 0.136851166775 -0.419025623896 0.793257475351 0.325816495015 0.780791856803 0.320215557979 0.177746314018 -0.406073991024
3.960555555000 0.136857478409 -0.419152650036 0.796771954562 0.325710128703 0.781982629578 0.318838070230 0.177208568018 -0.407771871230
3.960977777000 0.135929366536 -0.418251642488 0.796150816845 0.323953957055 0.782300703301 0.318710534798 0.177358854808 -0.407708280120
3.961400000000 0.135924419512 -0.418217698339 0.793896549928 0.321572358860 0.782527848828 0.320690082751 0.178048424765 -0.407140931694
3.961822222000 0.134990353923 -0.418827318341 0.797297926528 0.322636933675 0.783151689175 0.316987025437 0.176853277436 -0.407750131200
3.962244444000 0.134693262646 -0.419388169006 0.799445493056 0.320288201455 0.783199580607 0.315236267214 0.175233247869 -0.408241142575
3.962666666000 0.133998295972 -0.419774182226 0.799770365710 0.319534232324 0.785896520825 0.314524577426 0.175238613844 -0.409849057998
3.963088888000 0.133621399315 -0.419652545949 0.800950178009 0.317722684147 0.784135992435 0.313186444586 0.173783061416 -0.408894052695
3.963511111000 0.133180049744 -0.420615188903 0.801317949747 0.317088918637 0.785731147547 0.313411131839 0.174135043160 -0.408959559093
3.963933333000 0.132669349232 -0.420480308797 0.802744875049 0.315208343795 0.787453212275 0.311301319064 0.173328112485 -0.409927789395
3.964355555000 0.132407903940 -0.419614516459 0.803319308743 0.313992140831 0.786164137762 0.310473706811 0.172733747988 -0.410174485027
3.964777777000 0.132548026276 -0.419853592879 0.802773746709 0.313571759139 0.787180197442 0.310190443393 0.172162937248 -0.410844546453
3.965200000000 0.131487549389 -0.419480139295 0.803754183027 0.312127310335 0.787411052492 0.308952819276 0.172014517195 -0.411034581120
3.965622222000 0.131170311551 -0.419478003312 0.804858199980 0.311073424846 0.787947993209 0.308349305587 0.171559971954 -0.411230361430
3.966044444000 0.130841219188 -0.420631177019 0.805925590399 0.309384615085 0.789645431184 0.306514806741 0.170156496512 -0.412003603213
3.966466666000 0.130131864641 -0.421612558094 0.806367576598 0.308440311483 0.791520883432 0.306779188683 0.170051539553 -0.412319939361
3.966888888000 0.130184041359 -0.421758994842 0.807532191279 0.307204081532 0.791055430820 0.305570446888 0.168967851018 -0.412231768901
3.967311111000 0.129528430099 -0.420999453690 0.808749351641 0.306017544134 0.791137866965 0.303763480015 0.168166230126 -0.413012810395
3.967733333000 0.128594184009 -0.422306222423 0.809679235011 0.304861147820 0.792558211336 0.302505536040 0.167808374566 -0.413500926148
3.968155555000 0.128745276745 -0.421794490282 0.809491218174 0.302938491502 0.792098710308 0.303312551983 0.168018989793 -0.412715569405
3.968577777000 0.128062099783 -0.422128717788 0.810400121518 0.301570536813 0.793426979166 0.301393592743 0.166777365616 -0.414244763605
3.969000000000 0.126953882280 -0.423858027988 0.813405344260 0.300623718486 0.795217041879 0.298994072147 0.162144041009 -0.415004448085
3.969422222000 0.126376696754 -0.422706226160 0.812175794083 0.299102831054 0.794773342043 0.298540224397 0.165429002462 -0.414428119750
3.969844444000 0.125974498256 -0.422506135834 0.812801493396 0.297666689330 0.795079209484 0.296755675948 0.164015860546 -0.415438312060
3.970266666000 0.126085853454 -0.423725002276 0.813532242304 0.297224191260 0.796888113127 0.296717555682 0.163733896189 -0.415308832935
3.970688888000 0.125989380517 -0.422968883888 0.814228423940 0.295732144113 0.796233544523 0.296402655842 0.163801879541 -0.415644984268
3.971111111000 0.124943309545 -0.423984278843 0.814821022142 0.293876915311 0.798127933879 0.295179900926 0.162540000383 -0.415642981879
3.971533333000 0.123823961948 -0.423216106805 0.814897419375 0.293434622848 0.797293481023 0.292909194823 0.162449234837 -0.416389635159
3.971955555000 0.123325031853 -0.424270069624 0.816034067309 0.291576369267 0.799713081661 0.291974828735 0.161450317915 -0.417092002771
3.972377777000 0.123300551003 -0.423654485295 0.816735047227 0.290079349636 0.799468217296 0.291284553592 0.160809678720 -0.417440327739
3.972800000000 0.122823421987 -0.424571916271 0.817672861528 0.289127750900 0.799478656279 0.290581635645 0.160159435724 -0.417290880835
3.973222222000 0.121983583657 -0.425165982423 0.818007251226 0.287582108073 0.800934864483 0.289427939141 0.159997898775 -0.417456558220
3.973644444000 0.121375512060 -0.425264086753 0.818854760075 0.286465473666 0.801444585092 0.287669383008 0.158159545426 -0.418132817471
3.974066666000 0.121990049000 -0.426235283744 0.819348296004 0.285587447565 0.802736936225 0.288331663021 0.157917419246 -0.418556819604
3.974488888000 0.120240840464 -0.425304244619 0.820277468131 0.283537265430 0.801872886835 0.286296676716 0.157607942466 -0.418147307580
3.974911111000 0.119503762617 -0.425267041535 0.820959690200 0.282014404032 0.803309706903 0.285153184522 0.156822416379 -0.418998771749
3.975333333000 0.119859778208 -0.426845804887 0.821499033666 0.281537718940 0.804580357343 0.284158023168 0.155291932256 -0.419839484963
3.975755555000 0.118374727498 -0.427122534771 0.822172944692 0.279711133144 0.804205766285 0.281605500923 0.154079203006 -0.418770896520
3.976177777000 0.117560108032 -0.426932436080 0.822698368069 0.278164626213 0.804717768750 0.280862590763 0.154188386854 -0.419499697861
3.976600000000 0.116648554754 -0.425844647321 0.822818422783 0.277394930811 0.805009729280 0.280025942880 0.154733604793 -0.420393934824
3.977022222000 0.116949671474 -0.426514063058 0.824038072462 0.276140197268 0.805354800755 0.279587594999 0.153507970165 -0.420634266871
3.977444444000 0.117062358800 -0.428530021034 0.824861167947 0.274502258078 0.807439549477 0.279825000868 0.152594858417 -0.420937806319
3.977866666000 0.115751049140 -0.427377295618 0.824861658099 0.273339089240 0.807398954755 0.277028361201 0.151731006725 -0.421279588206
3.978288888000 0.115677700658 -0.427196584981 0.825578475985 0.271717833872 0.807456720006 0.276792577592 0.151516114530 -0.421362029451
3.978711111000 0.115053791352 -0.427250692870 0.826065126206 0.270531194625 0.807459857836 0.275123119040 0.150234692419 -0.421619781220
3.979133333000 0.113075825951 -0.428302807501 0.826902615709 0.269090027113 0.808856038840 0.272499064241 0.148796263657 -0.420909904832
3.979555555000 0.113308941828 -0.428673096085 0.827649476988 0.267748756880 0.809585786332 0.273324319471 0.148932767028 -0.421920214298
3.979977777000 0.113263719847 -0.428762198595 0.828134742425 0.266598923455 0.810376473845 0.272922550148 0.149055317695 -0.423347177590
3.980400000000 0.112671106370 -0.428759020078 0.828623220711 0.265204880310 0.809950826092 0.270859313718 0.147494211516 -0.422324871620
3.980822222000 0.112181278543 -0.429821274458 0.829466090666 0.263811390197 0.812021551194 0.270431690125 0.146617652391 -0.423730048189
3.981244444000 0.110614819880 -0.429799284365 0.829582255862 0.262675936627 0.812093108817 0.267717892283 0.145637287193 -0.422872270841
3.981666666000 0.110262567511 -0.432505742318 0.830718014966 0.261046097979 0.815008178972 0.268327612516 0.145596066120 -0.423328722751
3.982088888000 0.110231235729 -0.430820631660 0.831042917947 0.260022115960 0.813796323191 0.267537848957 0.145017480190 -0.424224833939
3.982511111000 0.109191893555 -0.430308640082 0.831562071239 0.258524911916 0.814061356865 0.265140839850 0.143516672335 -0.424407339197
3.982933333000 0.109267275445 -0.432140411681 0.832124219697 0.257142164344 0.816117291041 0.265012624839 0.143272350588 -0.424545559477
3.983355555000 0.108851858314 -0.432061610678 0.832736646114 0.255354166580 0.816226422189 0.264087765231 0.141681851772 -0.425030894866
3.983777777000 0.107891335935 -0.432209555822 0.833232253722 0.254230999363 0.816588047193 0.262342436185 0.141209368342 -0.424957958293
3.984200000000 0.107777083758 -0.429016570703 0.832811619284 0.253883615762 0.813970251943 0.260698222773 0.142197453512 -0.425756308367
3.984622222000 0.105498330542 -0.433128615635 0.834067077341 0.251454155559 0.818389041379 0.259308032958 0.139878465266 -0.425484127172
3.985044444000 0.104978414272 -0.432891174696 0.834608985450 0.250094603611 0.818825468255 0.257747163841 0.139094434415 -0.426211069302
3.985466666000 0.105537832611 -0.433278716215 0.834904161825 0.248974602592 0.819071230215 0.257470564880 0.138026655547 -0.425798695737
3.985888888000 0.103741492769 -0.434187920383 0.835324237904 0.246978094043 0.820551206143 0.255681000863 0.137235082073 -0.426477332141
3.986311111000 0.104600852538 -0.433182267830 0.836034169433 0.246505613627 0.819535994213 0.255695821521 0.136751161920 -0.426679470862
3.986733333000 0.103639369350 -0.432897285447 0.836564405430 0.245643196346 0.819128206674 0.254607852746 0.137373654753 -0.425942960346
3.987155555000 0.102629424691 -0.433856849247 0.837499614421 0.243799680945 0.820158940996 0.254174266239 0.136830092627 -0.426970871340
3.987577777000 0.102178422142 -0.435166055660 0.837711521114 0.242726441051 0.822002063343 0.251581120459 0.134706411912 -0.427462467193
3.988000000000 0.101095845275 -0.434109852176 0.837772413680 0.240960048505 0.822202568600 0.251062668952 0.134572569525 -0.427333690181
3.988422222000 0.099634721009 -0.434982044763 0.839121834146 0.239332053606 0.822513628235 0.249148432433 0.133094676455 -0.427312824380
3.988844444000 0.099594869393 -0.435441186469 0.839313998204 0.238117813033 0.823729940585 0.248832228844 0.133153528512 -0.427984276096
3.989266666000 0.100503801981 -0.436085811082 0.840124130350 0.236950920217 0.824464641379 0.247592944511 0.130902492633 -0.428610352602
3.989688888000 0.098505425527 -0.435799159186 0.840120756658 0.235551045400 0.823851898186 0.246045145697 0.131078896554 -0.427541547094
3.990111111000 0.095911039122 -0.435997866988 0.840004866267 0.233640828489 0.824812964066 0.242993094110 0.130189302518 -0.427309332322
3.990533333000 0.097344005500 -0.436191014407 0.840834299523 0.233100568896 0.825163186850 0.244756645315 0.130438357607 -0.428351058389
3.990955555000 0.096880118637 -0.436047717657 0.841538744071 0.231449785004 0.826043957722 0.242978304025 0.128929098066 -0.429976183756
3.991377777000 0.096230112129 -0.436081848073 0.842026265939 0.230092449891 0.826313094115 0.241646146903 0.128057789439 -0.429372108005
3.991800000000 0.093994759270 -0.437429389635 0.842188323810 0.228550329113 0.827034628807 0.240141879263 0.128493010854 -0.428524026511
3.992222222000 0.094441213849 -0.437543811889 0.843494681120 0.227175391229 0.828625708227 0.239911716050 0.126851212902 -0.430145034580
3.992644444000 0.093628393017 -0.437480698542 0.842969767854 0.225826598254 0.827023034915 0.237868530298 0.125611191878 -0.428591559080
3.993066666000 0.093252410840 -0.438555236438 0.844351918520 0.225195246482 0.828416576464 0.237326883266 0.125050837153 -0.429900233636
3.993488888000 0.092212970881 -0.438665323084 0.844703655353 0.223271689145 0.829024562243 0.236115254640 0.124443480379 -0.430067756473
3.993911111000 0.090935132606 -0.439087930328 0.845043442671 0.221421036364 0.829953486669 0.233746539700 0.122685473471 -0.429802099882
3.994333333000 0.089149304016 -0.438167899481 0.845274684899 0.221013403557 0.829400053035 0.233433570099 0.123517536599 -0.429628676693
3.994755555000 0.088840200733 -0.438852928408 0.846159109592 0.219100862636 0.830471066595 0.231264193991 0.122140377629 -0.429648483674
3.995177777000 0.088756201617 -0.439628022110 0.845906710102 0.217691557130 0.831921542760 0.229571388360 0.120025314650 -0.430052088310
3.995600000000 0.088305022146 -0.438640637489 0.846478436873 0.216463363505 0.830790235018 0.229788427196 0.121390235078 -0.430143779899
3.996022222000 0.086599137784 -0.440017583071 0.847107215065 0.214126754967 0.833086222597 0.227344802408 0.119113528187 -0.430445860638
3.996444444000 0.087615920513 -0.440486059728 0.847259156923 0.214104119739 0.833755616957 0.228282826889 0.119485789004 -0.431070983573
3.996866666000 0.085757119641 -0.441139590606 0.848646340365 0.212309238655 0.835221155373 0.225636061050 0.117962515021 -0.431847956347
3.997288888000 0.085501844312 -0.440258476660 0.849405889147 0.210872756792 0.833571073932 0.225226776981 0.117764079153 -0.431853209104
3.997711111000 0.084459779844 -0.441766669521 0.849072700167 0.209293578006 0.836464655836 0.223040052295 0.115935908013 -0.432076291083
3.998133333000 0.083439789039 -0.441739411466 0.849059839688 0.208657682800 0.836517643987 0.221733861342 0.116181786805 -0.432111826690
3.998555555000 0.082403831037 -0.442763293652 0.850540102111 0.205807295302 0.837983776941 0.221442572251 0.115750220939 -0.432115999061
3.998977777000 0.081818731662 -0.441481363360 0.849981683335 0.205857667308 0.835444090567 0.219855192834 0.115542437772 -0.430960055320
3.999400000000 0.081971994552 -0.443362395615 0.852080708687 0.204443088842 0.839254750711 0.218127701378 0.113152109287 -0.433228503674
3.999822222000 0.080034457366 -0.442000722159 0.849642509452 0.201901510682 0.837825549739 0.218133777888 0.113636834703 -0.431320317091
4.000244444000 0.079545378178 -0.441617499554 0.850530314937 0.201479056994 0.837157365109 0.216031772652 0.113186942426 -0.431395612446
4.000666666000 0.078494508192 -0.443204130238 0.851353101154 0.199820433644 0.839129777628 0.214907418221 0.111940397075 -0.431838499183
4.001088888000 0.078346798143 -0.443154005838 0.851922948037 0.198241518208 0.840543635548 0.214088733867 0.111378163654 -0.433126007181
4.001511111000 0.077154582703 -0.443051270601 0.852060697824 0.198052554705 0.839897346013 0.213563959662 0.111736131635 -0.432271331969
4.001933333000 0.077221683738 -0.442906192235 0.851556822628 0.196685509873 0.840604091288 0.212052111307 0.110715877841 -0.432191104233
4.002355555000 0.075328072476 -0.443113161161 0.853180245725 0.194769881309 0.840735648633 0.209969398862 0.109835935122 -0.432900299228
4.002777777000 0.074265382808 -0.443045802744 0.852694179348 0.191996994628 0.839360268936 0.209021382590 0.108384610063 -0.430632534584
4.003200000000 0.072804752380 -0.444317775258 0.854415149499 0.191267056775 0.841337647384 0.206483896456 0.107772501152 -0.432222058734
4.003622222000 0.072393275509 -0.443722049003 0.854153451687 0.190455999244 0.842325474010 0.204835533487 0.106923072295 -0.432622970140
4.004044444000 0.071675509299 -0.444175239916 0.855772128331 0.188268650822 0.842358660498 0.204291263093 0.106470751059 -0.432865945252
4.004466666000 0.071950425997 -0.444015439981 0.853649764632 0.188363561818 0.843178909428 0.204126705257 0.106257306056 -0.432493789896
4.004888888000 0.070065184371 -0.444799420732 0.855882778293 0.186262736497 0.843962682196 0.201481457282 0.105600578456 -0.433101766792
4.005311111000 0.070082137305 -0.445604743908 0.855862100164 0.185321725668 0.846191991916 0.201707630369 0.104918456192 -0.434507584912
4.005733333000 0.067931461401 -0.444623782495 0.856873648968 0.183164826054 0.844829629764 0.198492466394 0.103426759889 -0.433715647075
4.006155555000 0.067448162416 -0.445642305054 0.856570362542 0.182968426277 0.846937679996 0.198109777603 0.103893232293 -0.434289536746
4.006577777000 0.066539381104 -0.445934398774 0.857406370558 0.181470564530 0.847327076408 0.197286586096 0.102839960874 -0.434260146242
4.007000000000 0.068691575824 -0.447163807671 0.853579364611 0.184858243188 0.851512099905 0.200924184556 0.106518932244 -0.435028089897
4.007422222000 0.064893135255 -0.445653404595 0.857385013856 0.178265598984 0.847509152861 0.194011851214 0.101129474250 -0.433957566585
4.007844444000 0.062790857336 -0.445635062176 0.857073823386 0.175302324223 0.847042904629 0.191876989313 0.100283870031 -0.432383015183
4.008266666000 0.062554799207 -0.445637921299 0.856307831225 0.174467022912 0.847638871506 0.193161255800 0.101614328956 -0.432220345943
4.008688888000 0.060229594578 -0.447532123157 0.859544223099 0.173413216988 0.850063674456 0.188004579970 0.098556186846 -0.433934361301
4.009111111000 0.059718543369 -0.447271139953 0.860549710403 0.173199715954 0.850290162115 0.186699806711 0.098089595805 -0.434503333649
4.009533333000 0.059574719146 -0.445926334345 0.858456606040 0.169132059551 0.847165664043 0.188355188129 0.098295228496 -0.431938597104
4.009955555000 0.058260777684 -0.446249570871 0.859470096947 0.168641092439 0.850397378312 0.185037267208 0.097193119638 -0.433996956660
4.010377777000 0.059135521548 -0.447017588323 0.858250848623 0.168453108155 0.851294880613 0.188400316716 0.099050460629 -0.433807515643
4.010800000000 0.057456498325 -0.446650798186 0.859315305000 0.167054807289 0.850677928563 0.184480323250 0.097043608690 -0.433388284417
