# GHZ S RI R 50.000000000000
3.950000000000 -0.053523417894 -0.000057663410 0.339488874704 0.921388385143 0.373094954454 0.904902487906 -0.033276233334 0.023898121390
3.950422222000 -0.052084300378 0.001183699795 0.350616809181 0.919342069724 0.371034325302 0.905427923369 -0.033178786327 0.025461778019
3.950844444000 -0.050816436360 0.003772914488 0.358082372928 0.918388254040 0.370623881231 0.906560971962 -0.031913570316 0.027286439414
3.951266666000 -0.051353483652 0.004002883959 0.363005420137 0.916772178289 0.371551642624 0.906185274888 -0.032463143666 0.029116990152
3.951688888000 -0.049418021509 0.003254053499 0.367896638733 0.912973419181 0.370588224037 0.906438090079 -0.032387449645 0.028091452785
3.952111111000 -0.049590114166 0.004945980645 0.371001657399 0.912840303498 0.371718619814 0.906916826155 -0.031975092462 0.028980625507
3.952533333000 -0.048978170391 0.005169364133 0.373902845726 0.914205399493 0.373006172661 0.905814751054 -0.030796180561 0.029671158391
3.952955555000 -0.049396859073 0.005617500383 0.377783971592 0.911301703202 0.373772906369 0.906556850111 -0.030969312041 0.030213958404
3.953377777000 -0.049662123997 0.005105406878 0.379041291486 0.910910995831 0.374009021273 0.906960027647 -0.031111021503 0.030822681816
3.953800000000 -0.050458459085 0.006503965017 0.378651668099 0.913374591823 0.375805466770 0.904321776115 -0.029705349206 0.031126431601
3.954222222000 -0.049692985630 0.006824259836 0.380871708101 0.910879951219 0.376653272671 0.906972199077 -0.030786081050 0.031370742489
3.954644444000 -0.049552429176 0.006543096898 0.381984896195 0.908904319636 0.378459390490 0.905290067430 -0.030254913270 0.031319967730
3.955066666000 -0.050479679716 0.007743483249 0.384254203243 0.910869112025 0.378389898020 0.905972713174 -0.030328584997 0.032759757267
3.955488888000 -0.050053784175 0.007109927221 0.384667693711 0.910506203417 0.379297705075 0.905843223475 -0.030945430551 0.031062592180
3.955911111000 -0.049469329587 0.007929789336 0.387278179581 0.909367063618 0.381353422560 0.905242368689 -0.029188523348 0.031578382902
3.956333333000 -0.050517555437 0.007911257794 0.388081979162 0.908776052664 0.381467660628 0.907165520890 -0.029358023358 0.033177722205
3.956755555000 -0.049647026944 0.007965492506 0.390264701669 0.909478469219 0.384628842714 0.905207990660 -0.029097764885 0.031708522330
3.957177777000 -0.049596162304 0.008194767560 0.390719891102 0.908442464360 0.385631552024 0.905376528426 -0.029434059532 0.032565427666
3.957600000000 -0.049238344333 0.009135628900 0.394777779062 0.910278364392 0.387317700507 0.904224569773 -0.028363339346 0.032454052952
3.958022222000 -0.049919897162 0.008301088210 0.395055165593 0.908198435535 0.388216256157 0.904769744648 -0.029510720157 0.032403432870
3.958444444000 -0.049767639431 0.010451783318 0.396610181926 0.909507461747 0.388393040973 0.903274595876 -0.027562085839 0.033611144631
3.958866666000 -0.050022588915 0.009069471382 0.396284646128 0.909095588796 0.391301824596 0.906211489239 -0.029240879682 0.033099553228
3.959288888000 -0.050575964380 0.010596590758 0.397547936660 0.909924558258 0.391778420856 0.904227305329 -0.028572747271 0.034337384394
3.959711111000 -0.050366150583 0.009914770371 0.399229602280 0.908222465518 0.393615404046 0.905104405646 -0.029163685513 0.033521039624
3.960133333000 -0.049625095322 0.010531221477 0.401698638084 0.908029910565 0.394782099371 0.904309706038 -0.027890446769 0.033853084439
3.960555555000 -0.050083206030 0.010996690330 0.402985353151 0.907665917558 0.397581096118 0.904140509135 -0.027374909181 0.033934962774
3.960977777000 -0.049931336877 0.011661754574 0.405085887752 0.907627429233 0.398585153813 0.904239096269 -0.026822844323 0.034528633916
3.961400000000 -0.048734294438 0.011680738426 0.405413163479 0.907106292210 0.395781880881 0.905572755085 -0.026666184889 0.033410999569
3.961822222000 -0.049747234464 0.011970199444 0.407259316562 0.906733039629 0.400402224769 0.903479218221 -0.027049339416 0.034350738078
3.962244444000 -0.049400791475 0.012303361276 0.409540149859 0.906178595573 0.401988865277 0.902207669837 -0.026746559977 0.034587931366
3.962666666000 -0.049288296892 0.012484060602 0.410703482938 0.906881259348 0.404191129512 0.903716080042 -0.026657440519 0.033952457605
3.963088888000 -0.049084313865 0.013209143021 0.413375381305 0.906514836738 0.404653729755 0.901375468765 -0.025762589637 0.034313990324
3.963511111000 -0.049145417214 0.012664629272 0.413124765117 0.905421056367 0.405388764984 0.902467707863 -0.026387746852 0.034124063480
3.963933333000 -0.049761246493 0.014300367653 0.414426192011 0.907661895890 0.407701869170 0.902387193732 -0.025295156525 0.034808935899
3.964355555000 -0.049499299143 0.014769923015 0.416918089576 0.905964053361 0.407641431422 0.901616336124 -0.025502413137 0.035036909867
3.964777777000 -0.048216264142 0.013942046033 0.418266373607 0.903487264950 0.410268009359 0.900760896595 -0.024496473135 0.034001911314
3.965200000000 -0.048725266780 0.014698819280 0.419282075790 0.905207392543 0.411494081655 0.900228919185 -0.024668375094 0.034775542196
3.965622222000 -0.048343517434 0.015207697752 0.422741433000 0.903495598120 0.412727278925 0.900634898554 -0.024306855564 0.035254765761
3.966044444000 -0.047910914104 0.015553312217 0.424400152958 0.904432757836 0.415183537777 0.900735877557 -0.024295845419 0.034707920560
3.966466666000 -0.048384027099 0.014958690438 0.425307941694 0.903287655169 0.416360667483 0.902035692011 -0.024295318326 0.034529798600
3.966888888000 -0.048169468654 0.015848086159 0.426267413378 0.904311364098 0.417396677917 0.901033441977 -0.023577482115 0.035120018292
3.967311111000 -0.048158988211 0.016012975584 0.428473562090 0.902549726531 0.418951188902 0.899587485430 -0.024083769373 0.034435996350
3.967733333000 -0.047655112625 0.016062851089 0.429404284678 0.902252963099 0.421549369488 0.899177517441 -0.023075689304 0.034510825233
3.968155555000 -0.047070882234 0.016819526232 0.431517125051 0.900904187995 0.421026065993 0.900158680937 -0.023232228500 0.034958181859
3.968577777000 -0.046701225308 0.016592126809 0.433538602534 0.901347120979 0.423751639381 0.899260205252 -0.023473757750 0.034752820035
3.969000000000 -0.047550689805 0.015311152107 0.436237215420 0.903737207797 0.427628885291 0.900782638505 -0.024222322556 0.034217273626
3.969422222000 -0.047106503349 0.017211404210 0.436979948521 0.900003739706 0.427407990267 0.897893559697 -0.022262635449 0.035089316755
3.969844444000 -0.046815030829 0.017259015979 0.438787551294 0.898903131179 0.429466084970 0.897110744117 -0.022342073162 0.034923551432
3.970266666000 -0.046486617123 0.017386021879 0.439723800191 0.899466207133 0.430767844836 0.897955218954 -0.022398843644 0.034468726080
3.970688888000 -0.046091396245 0.018634093798 0.442587210612 0.900006209846 0.431126709477 0.898109705369 -0.021450765373 0.035254669470
3.971111111000 -0.046289056777 0.017715172073 0.442594178118 0.897952216215 0.434051145396 0.897160633026 -0.021960638397 0.035028363143
3.971533333000 -0.045368150278 0.018814122859 0.446694758006 0.898289252035 0.435260157285 0.895257759759 -0.020408066325 0.033958454711
3.971955555000 -0.045839920522 0.018242812887 0.446006844289 0.897369397281 0.437327496617 0.896207073163 -0.021560665015 0.034862637362
3.972377777000 -0.045240112168 0.019241346715 0.449605962336 0.896219793581 0.438510024743 0.895428499077 -0.020252462419 0.034524567498
3.972800000000 -0.044834426719 0.018907970776 0.450821722632 0.895023006469 0.439415734146 0.895830559976 -0.020740277927 0.034442645043
3.973222222000 -0.044559378411 0.019397681169 0.452407088829 0.894385425319 0.441890722463 0.896062277270 -0.020062845377 0.035467271618
3.973644444000 -0.044817491918 0.019290333882 0.453715676179 0.894730007321 0.443732401969 0.894219880344 -0.020092405278 0.033897397777
3.974066666000 -0.043871933765 0.019207131649 0.456661647049 0.893933714985 0.444308305111 0.896068030831 -0.020526639811 0.033801459284
3.974488888000 -0.044194727010 0.020070095785 0.458262068635 0.893557788214 0.445655823596 0.894060696433 -0.019877980149 0.034822750589
3.974911111000 -0.044584987431 0.020137049614 0.458823086936 0.893714046106 0.447679078675 0.893731554395 -0.020528314626 0.034650789555
3.975333333000 -0.042804168933 0.019637997091 0.461709255730 0.891596864975 0.450030034910 0.894168800346 -0.019820813704 0.033270490798
3.975755555000 -0.043534664263 0.020168664784 0.462739990727 0.892199258270 0.452053097935 0.892008916609 -0.019932953415 0.034473619467
3.976177777000 -0.042989415949 0.019898178315 0.463922151233 0.890188246903 0.453667720706 0.891186290377 -0.019317594562 0.034122827876
3.976600000000 -0.041744192159 0.020575933945 0.467947256670 0.887895834652 0.455770290287 0.890135282022 -0.017374790181 0.032792992434
3.977022222000 -0.042475121375 0.021355684492 0.467751832169 0.891220715939 0.455171856348 0.891055058877 -0.018529924651 0.033454861727
3.977444444000 -0.041417179460 0.020509062935 0.470156630950 0.889292005801 0.457765388726 0.891990519739 -0.018413014212 0.032773731693
3.977866666000 -0.041722375182 0.020968911613 0.471264733083 0.888482810415 0.459815429393 0.889830739845 -0.018016882868 0.033021187247
3.978288888000 -0.041324861552 0.021205168039 0.472543717221 0.887565571424 0.460649094710 0.889118097863 -0.017898924944 0.033373748440
3.978711111000 -0.041662524419 0.021496819582 0.472663282179 0.887728621677 0.462059541639 0.888171881673 -0.017570238883 0.033047579417
3.979133333000 -0.041943264217 0.021239432669 0.476049289559 0.886637673888 0.465775913009 0.886529577800 -0.017916135641 0.032629824835
3.979555555000 -0.041193575171 0.020960058159 0.477000868616 0.885214019537 0.466242726884 0.887684216636 -0.017592567871 0.032714680215
3.979977777000 -0.040581927197 0.021568524888 0.478111503343 0.885466242813 0.466399820467 0.887638688973 -0.017387470103 0.031684383896
3.980400000000 -0.040609148072 0.022216937659 0.480570698318 0.884338050866 0.467758276468 0.886152175734 -0.017373302212 0.032909792166
3.980822222000 -0.039566026919 0.021665467532 0.482567862508 0.884666676023 0.471097881097 0.887154156541 -0.017080905983 0.031340004426
3.981244444000 -0.039675678901 0.021491831812 0.484419193737 0.882197787921 0.473295167123 0.884053426777 -0.017268038020 0.031248539959
3.981666666000 -0.039878905427 0.020762738347 0.483856900090 0.881823600592 0.474747975259 0.886337167430 -0.018534812820 0.031298438341
3.982088888000 -0.039103039903 0.021707153974 0.486499714221 0.881920278388 0.475434402596 0.885605559665 -0.016998129580 0.030601750471
3.982511111000 -0.039716723632 0.021323329523 0.487175162336 0.879900516157 0.476710283266 0.883359389644 -0.017664822722 0.031076443669
3.982933333000 -0.038545016114 0.021514363553 0.489009389367 0.879152586062 0.479300767186 0.884594837409 -0.016986059088 0.031038265774
3.983355555000 -0.038219544101 0.021572752792 0.492432880151 0.878015869702 0.480715808569 0.884016814650 -0.016924807077 0.030333307048
3.983777777000 -0.038052542385 0.021390538907 0.492752497495 0.876865644892 0.482615097924 0.882152860231 -0.016939230475 0.030528324764
3.984200000000 -0.037406256376 0.024570304850 0.495895023141 0.880231453793 0.480525829965 0.879738152434 -0.014917428351 0.030180994243
3.984622222000 -0.037657851583 0.021150275040 0.496114531826 0.875638677707 0.487051028043 0.880747634117 -0.017027656410 0.030316467128
3.985044444000 -0.037333819480 0.021272978871 0.498178452796 0.874711942501 0.488427081044 0.879344247154 -0.016825862974 0.030093266829
3.985466666000 -0.036906481503 0.021594997575 0.498671727273 0.873374702651 0.489100380854 0.879858142169 -0.016903558318 0.029860030165
3.985888888000 -0.036576821124 0.021451366311 0.501567742745 0.872976090447 0.491665662013 0.878981888894 -0.016565812844 0.029446877728
3.986311111000 -0.036488588435 0.021663739332 0.502025983315 0.872311762916 0.491415334740 0.878255080120 -0.015982418808 0.029192798127
3.986733333000 -0.036920048644 0.022129351317 0.502709116984 0.872222662622 0.491728029518 0.875878918754 -0.016140569745 0.029323680916
3.987155555000 -0.035442627157 0.021789400510 0.506410143589 0.870827689736 0.493882475482 0.876684283037 -0.015699882948 0.028812717617
3.987577777000 -0.035275035295 0.021428733220 0.507385671101 0.869921763048 0.496945818455 0.876117904593 -0.015733222959 0.028265671000
3.988000000000 -0.036085428454 0.021284344835 0.507280790616 0.868500998851 0.498248096519 0.874780298415 -0.015924639548 0.028627162530
3.988422222000 -0.035565160748 0.021106583451 0.510831349432 0.867290841745 0.500348686970 0.873193444028 -0.017117009979 0.027974833658
3.988844444000 -0.034698316872 0.021153370841 0.512433487635 0.866799079383 0.502249674317 0.873739285652 -0.015941824447 0.028264430392
3.989266666000 -0.034115561562 0.021466037491 0.514136237948 0.866617900125 0.503777598378 0.873753240018 -0.016374079813 0.027747055041
3.989688888000 -0.034867515838 0.021428039915 0.514670285514 0.865260429777 0.504323252692 0.870886710392 -0.016399906334 0.027816010445
3.990111111000 -0.034658737537 0.020431002849 0.515619669765 0.862556405382 0.508100886008 0.869387171050 -0.016435711890 0.028400871718
3.990533333000 -0.034311659704 0.020684073766 0.517179149460 0.862903055227 0.507696666107 0.869850210875 -0.015369092313 0.027143522055
3.990955555000 -0.033856048826 0.020900895464 0.520097953601 0.862264630121 0.508589579380 0.869032375113 -0.015743531738 0.026529273244
3.991377777000 -0.034005198313 0.020839669080 0.520948323506 0.860815073449 0.510126752795 0.867987768215 -0.016371744689 0.026806465782
3.991800000000 -0.033376824166 0.020693824984 0.522196153854 0.859668510849 0.513226636379 0.866896613679 -0.015287739806 0.027219625002
3.992222222000 -0.033489251370 0.020161475133 0.524205105455 0.858570341415 0.514381405681 0.866950646497 -0.016435702583 0.025890964190
3.992644444000 -0.033455142253 0.020490475499 0.524770159955 0.857713247499 0.515354690167 0.865397534582 -0.015888500760 0.026219231669
3.993066666000 -0.032685469607 0.020256948078 0.528003146749 0.857707918713 0.517218364178 0.865627286386 -0.015540800694 0.025134410796
3.993488888000 -0.032579221075 0.019745891705 0.529684184711 0.856061399002 0.518603642833 0.864007798969 -0.015724599439 0.025360410469
3.993911111000 -0.032783812438 0.019505590630 0.530819953296 0.854797617578 0.521629824390 0.861895228380 -0.016396191227 0.025233704866
3.994333333000 -0.032046528128 0.018999477837 0.533017545099 0.852843310208 0.523642357226 0.861108649334 -0.016747155597 0.024809417492
3.994755555000 -0.032957945482 0.019617371079 0.533596445604 0.852386566275 0.524033596924 0.858908961011 -0.017072657554 0.025090681254
3.995177777000 -0.032694608461 0.019440894280 0.534476668066 0.852126167635 0.526823796640 0.859443546536 -0.017343375601 0.024736663542
3.995600000000 -0.032305579024 0.019677345686 0.535184328883 0.850661580861 0.525483855157 0.858367152980 -0.016200961505 0.025436720863
3.996022222000 -0.032095310040 0.018898556037 0.537903633653 0.848596294368 0.529086147958 0.856891089281 -0.017486306092 0.024542336932
3.996444444000 -0.031824925006 0.018853276229 0.538456962251 0.848888381245 0.529648259434 0.857765868749 -0.016617369424 0.024038343189
3.996866666000 -0.031653674989 0.019064082007 0.540814740258 0.848814881823 0.533421333173 0.857344207910 -0.017349517487 0.024462282825
3.997288888000 -0.031876252436 0.018745345244 0.541661631602 0.847247493948 0.532034288518 0.855467833327 -0.016854664242 0.023977398321
3.997711111000 -0.031490320500 0.018501688902 0.543472701493 0.845817234212 0.535805888748 0.855061375975 -0.017260572544 0.023657716941
3.998133333000 -0.031420250013 0.018858685525 0.544154765295 0.845477831129 0.536677190503 0.854014507899 -0.017137190182 0.023711567644
3.998555555000 -0.031033155247 0.018420336019 0.546663926986 0.843358043735 0.538264817641 0.853463509729 -0.017929583261 0.023902843652
3.998977777000 -0.031333404761 0.018486246786 0.546670894538 0.842750337720 0.537844337326 0.851104760409 -0.017105699879 0.023771412775
3.999400000000 -0.031434412578 0.018649783676 0.548438087835 0.843459177920 0.541216557863 0.851993430855 -0.018050328904 0.023615495643
3.999822222000 -0.031325039267 0.017733333615 0.549715354835 0.839042171335 0.541754107705 0.849493127413 -0.017734484270 0.023425361426
4.000244444000 -0.031514310491 0.018445818246 0.550348128525 0.838784177876 0.540557017452 0.847923185873 -0.017410769150 0.023984490972
4.000666666000 -0.030676015833 0.017548817937 0.551636553285 0.837513135263 0.545266969353 0.848627461668 -0.017578009359 0.023139131733
4.001088888000 -0.030651680719 0.017978005203 0.553867429392 0.837228321806 0.545889894447 0.847714392430 -0.017575303601 0.023076433076
4.001511111000 -0.031144698879 0.016951488169 0.554416785456 0.835870337612 0.547501711580 0.845887328632 -0.017490991750 0.022504937687
4.001933333000 -0.031444681815 0.017762074927 0.553955430323 0.834796357246 0.547091525438 0.845251621573 -0.018184575037 0.023368450170
4.002355555000 -0.031202159268 0.017366871178 0.556588234926 0.833862627238 0.549799695170 0.843697982071 -0.017871187153 0.022455373872
4.002777777000 -0.030939030566 0.017747834829 0.558608058382 0.832334364692 0.551932751400 0.842719194736 -0.019267702592 0.022977289245
4.003200000000 -0.030722381707 0.016717401613 0.560728266148 0.831847897805 0.554277482441 0.840823542167 -0.018126942236 0.022704791863
4.003622222000 -0.031157297380 0.016851412153 0.561102209744 0.830859917578 0.555124762840 0.838919449255 -0.018907597465 0.022924029797
4.004044444000 -0.031162140333 0.017143827020 0.563890686951 0.829536874399 0.555268884963 0.837297440551 -0.018932643569 0.022679932725
4.004466666000 -0.031377327974 0.016839947883 0.561594865925 0.828273633002 0.555988334757 0.839149412610 -0.018459404663 0.021961362027
4.004888888000 -0.030815286463 0.017150492270 0.565868290430 0.827710254661 0.557867200744 0.836001170024 -0.018779731888 0.023066216036
4.005311111000 -0.030704264711 0.016228041130 0.566252667226 0.826432861865 0.559622544030 0.837259787719 -0.018580943468 0.021783773145
4.005733333000 -0.031363317158 0.016286831810 0.568432611230 0.825803428661 0.561949148890 0.833532807051 -0.019263067274 0.022017286431
4.006155555000 -0.031188073950 0.015702775496 0.568613624459 0.824889345124 0.562941298942 0.833685524847 -0.018430776093 0.022011444595
4.006577777000 -0.031382058105 0.015586306240 0.570202411000 0.823710901542 0.565824569296 0.832750673095 -0.019219288445 0.021545252631
4.007000000000 -0.030159410750 0.014903014725 0.565795810162 0.825587691449 0.569390717567 0.837585843463 -0.017802188566 0.021390446865
4.007422222000 -0.031144681840 0.015611048346 0.572409955595 0.820638296374 0.567228137629 0.830315796747 -0.019156049590 0.021992350199
4.007844444000 -0.031381351456 0.015608002450 0.574193313264 0.818271937147 0.568863058288 0.826888224224 -0.019746831925 0.022854967740
4.008266666000 -0.031310574787 0.015914885410 0.574120393009 0.817581702381 0.569660125856 0.827722970388 -0.020243470717 0.022486565870
4.008688888000 -0.031287556140 0.015765893325 0.578152501738 0.817785341035 0.572729112092 0.827153664717 -0.020719975711 0.021709660692
4.009111111000 -0.032458725254 0.014861523860 0.578523086778 0.817723282435 0.573811197417 0.823665819646 -0.020178659772 0.020725216249
4.009533333000 -0.030797872177 0.015486035672 0.579523709834 0.814095379466 0.574289802107 0.824724013240 -0.020400773058 0.022080696071
4.009955555000 -0.031756628665 0.015679601951 0.580475790980 0.814108536920 0.574316958784 0.821943732447 -0.020658005534 0.021702838545
4.010377777000 -0.031398697896 0.015047061470 0.580356871915 0.811701576216 0.574665385409 0.822943138901 -0.020077436369 0.021505881492
4.010800000000 -0.031826449724 0.015549529480 0.580711095330 0.812096064951 0.576729863521 0.823062720224 -0.019821482370 0.021934790603
