# GHZ S RI R 50.000000000000
3.950000000000 -0.072088320681 -0.320636554347 0.820151235833 -0.312194985520 0.803467418573 -0.332480322050 -0.103893560178 -0.313852014645
3.950422222000 -0.072588024263 -0.320596326388 0.817603969741 -0.319723575813 0.804365995342 -0.330452378993 -0.107439606906 -0.312596258259
3.950844444000 -0.074137346549 -0.320043889856 0.815527407572 -0.326201998592 0.804178802247 -0.329344235171 -0.109810735110 -0.310462492768
3.951266666000 -0.075615557385 -0.320565908009 0.814125949969 -0.331686659584 0.803198926036 -0.329924791937 -0.112205065908 -0.308689441602
3.951688888000 -0.076568306177 -0.319565299607 0.811457668416 -0.334725445739 0.803677451425 -0.328912420413 -0.112124282186 -0.307173976225
3.952111111000 -0.077100920809 -0.319385239136 0.811002096666 -0.338671912115 0.803507191820 -0.330008132258 -0.113884201075 -0.306597490640
3.952533333000 -0.077790309572 -0.318765448954 0.810426791856 -0.339980830637 0.802717471017 -0.331341716109 -0.114752233953 -0.305012536876
3.952955555000 -0.078602600867 -0.319090315497 0.808849620670 -0.343629009152 0.802698837951 -0.332725159775 -0.116312514803 -0.304677685122
3.953377777000 -0.078819940907 -0.318354626364 0.808374668273 -0.344362938982 0.802811157837 -0.333615821905 -0.116408862754 -0.304376276282
3.953800000000 -0.078974622294 -0.317674999797 0.808996121879 -0.345942321397 0.801152410469 -0.335624754774 -0.118080958670 -0.303266512201
3.954222222000 -0.079255988518 -0.317684533730 0.807444092083 -0.348326262079 0.802353877827 -0.335173974623 -0.117171719600 -0.302818635351
3.954644444000 -0.080405521328 -0.316795289496 0.806364551426 -0.349293304119 0.800830992799 -0.337179862337 -0.118140484714 -0.301902510749
3.955066666000 -0.080349409851 -0.316614364619 0.806256423330 -0.351378690339 0.801206246230 -0.337636777656 -0.118608187563 -0.301832606542
3.955488888000 -0.080389902091 -0.316465918616 0.806183716983 -0.352450385721 0.801137865933 -0.339228471423 -0.118578371385 -0.301297978145
3.955911111000 -0.081030726690 -0.315796081012 0.805653081674 -0.353904726287 0.799961493340 -0.340754522055 -0.119487070550 -0.300148211286
3.956333333000 -0.081983900515 -0.315628550786 0.803857792484 -0.353839359987 0.800314171510 -0.340822730149 -0.118846676705 -0.299095426604
3.956755555000 -0.081194552638 -0.315695868422 0.805282070010 -0.356565738924 0.800289760458 -0.343323415856 -0.119864568522 -0.299277622532
3.957177777000 -0.082048613157 -0.315277953833 0.803574317907 -0.357579444172 0.800168890498 -0.344490809713 -0.120179010098 -0.298641033866
3.957600000000 -0.081255902976 -0.313998842052 0.804318145939 -0.359926505005 0.798048169522 -0.344821631982 -0.121081896442 -0.298094283618
3.958022222000 -0.082079043382 -0.314333166236 0.803832624991 -0.360407502143 0.798382830931 -0.348214402379 -0.121830526533 -0.297804062947
3.958444444000 -0.081863154714 -0.313483054299 0.803093869867 -0.362591107328 0.797398247691 -0.347605351354 -0.122568742340 -0.296715238438
3.958866666000 -0.081897680220 -0.313710341822 0.803237593804 -0.362867509216 0.798808463227 -0.349404793850 -0.122083714221 -0.296978930324
3.959288888000 -0.082619023894 -0.312714869204 0.802875576158 -0.364893435139 0.797264291333 -0.350183080372 -0.122675809939 -0.296535124134
3.959711111000 -0.083005119175 -0.313157586158 0.802135226307 -0.365470885353 0.797446018263 -0.352843145119 -0.123260725923 -0.295647138232
3.960133333000 -0.083377648626 -0.312978414875 0.801228837180 -0.367039175642 0.797012161361 -0.353420983829 -0.123590734973 -0.294547052984
3.960555555000 -0.083333800046 -0.312256650416 0.802094333237 -0.368723180069 0.796433142387 -0.355427468618 -0.124398242451 -0.294472505688
3.960977777000 -0.083462578104 -0.311713923490 0.801472292558 -0.370110936693 0.796621645790 -0.355746383635 -0.124604264687 -0.294315510048
3.961400000000 -0.083690003426 -0.311123099253 0.799666368021 -0.370306364569 0.797286859941 -0.355619938521 -0.123970349317 -0.293298117329
3.961822222000 -0.084393256479 -0.311124460821 0.800474842838 -0.372424265107 0.795852504358 -0.358314084693 -0.124988219104 -0.293287977555
3.962244444000 -0.084507857836 -0.310776450552 0.799861870588 -0.374543366572 0.794310006857 -0.359867460501 -0.126037195054 -0.292423602619
3.962666666000 -0.085163524751 -0.310266247490 0.799609546673 -0.375780845491 0.794786726651 -0.363059088065 -0.126598211946 -0.292335702418
3.963088888000 -0.084969743271 -0.309791900088 0.799327928038 -0.377498248928 0.792678085877 -0.361905767418 -0.126398594663 -0.290769344096
3.963511111000 -0.085512476032 -0.309973706072 0.798254899810 -0.378525150164 0.794430253998 -0.363472756146 -0.126491712610 -0.291106271957
3.963933333000 -0.086141275745 -0.309451350322 0.798089673587 -0.379896156073 0.793026316968 -0.367215052107 -0.128116895512 -0.289794508266
3.964355555000 -0.085802958915 -0.308975083377 0.797633684741 -0.381869725890 0.792423248580 -0.365815914092 -0.127887340044 -0.289551335104
3.964777777000 -0.086220271923 -0.308533103477 0.796763654678 -0.383028178413 0.791959113963 -0.368253649588 -0.128463482620 -0.288562914872
3.965200000000 -0.086036506875 -0.307800316037 0.797092193625 -0.384010972669 0.790889759609 -0.368036605968 -0.128532899615 -0.288671001679
3.965622222000 -0.086283390290 -0.307422118855 0.796337446795 -0.385705410100 0.791864412833 -0.368757456594 -0.128754998031 -0.288613441708
3.966044444000 -0.086934246860 -0.307621071613 0.795805044580 -0.387576244247 0.791105512016 -0.372487717586 -0.129934389611 -0.287751594123
3.966466666000 -0.087432654164 -0.308011563123 0.795378712976 -0.388694401429 0.793575797710 -0.374397990845 -0.130241300354 -0.287957212292
3.966888888000 -0.087497207428 -0.307578248466 0.795046472728 -0.390089474733 0.791929347570 -0.375000804641 -0.130658762467 -0.286776832960
3.967311111000 -0.087268064150 -0.306429751298 0.795036701697 -0.391820403941 0.789872578213 -0.375394683888 -0.130864022821 -0.286279163873
3.967733333000 -0.088507133150 -0.306207589583 0.794051543279 -0.393028610110 0.789514867651 -0.377858138400 -0.131107607700 -0.285526186950
3.968155555000 -0.087985241707 -0.306040273769 0.793367606117 -0.393812333370 0.789752998067 -0.377016924987 -0.130995921502 -0.285191837895
3.968577777000 -0.088018728055 -0.305718375317 0.793188513726 -0.396175384652 0.789778860222 -0.378418647735 -0.131738311207 -0.285379103624
3.969000000000 -0.088090245432 -0.304456429101 0.792753401234 -0.395086196222 0.785589805665 -0.384256189368 -0.133629192356 -0.283022993185
3.969422222000 -0.089298325431 -0.305243597995 0.792320107131 -0.398666232773 0.788635984730 -0.382245151170 -0.132674024147 -0.283843130969
3.969844444000 -0.089298926053 -0.304532602528 0.791672730861 -0.400205373486 0.787287056519 -0.383007042449 -0.133370606372 -0.283103216560
3.970266666000 -0.089794171968 -0.304797722529 0.791426425607 -0.401350865800 0.788510378815 -0.385535007983 -0.133479322289 -0.282875110320
3.970688888000 -0.089651337441 -0.303965742670 0.790408937301 -0.402660895637 0.786643463077 -0.385297437965 -0.133780244966 -0.281839993568
3.971111111000 -0.090043449443 -0.304269114642 0.790408396571 -0.403948379518 0.787160234446 -0.386964187790 -0.134291143896 -0.281778277710
3.971533333000 -0.090975238290 -0.302961549215 0.789583845881 -0.405673798782 0.785940067241 -0.388747835299 -0.134087901722 -0.281075424105
3.971955555000 -0.091045959430 -0.303276390903 0.789291516440 -0.407087767916 0.786589704532 -0.390588153285 -0.135283023807 -0.281109452961
3.972377777000 -0.090917080858 -0.302826051016 0.789454651368 -0.408520155589 0.785719914019 -0.390458278735 -0.135199354879 -0.280423588159
3.972800000000 -0.091602147198 -0.302858938033 0.788407388664 -0.410180995855 0.785489081649 -0.392959991129 -0.136015709511 -0.279868644663
3.973222222000 -0.092718362690 -0.302553236571 0.787320394822 -0.411630478843 0.785066396365 -0.395039461520 -0.136968021775 -0.278738364401
3.973644444000 -0.092277801525 -0.302155035166 0.787792910744 -0.412571671431 0.784167252918 -0.395584514741 -0.136445618086 -0.278422272675
3.974066666000 -0.091697311864 -0.302487153135 0.787785080252 -0.412768686917 0.784660339022 -0.394420258141 -0.135746932628 -0.278431450507
3.974488888000 -0.092881307126 -0.301514522788 0.786183588180 -0.415379085158 0.783882012839 -0.397678249227 -0.137192759311 -0.277906468023
3.974911111000 -0.092903867231 -0.301208190377 0.786289728783 -0.417225725588 0.783231355153 -0.398990180793 -0.137890190177 -0.277688221436
3.975333333000 -0.093243967341 -0.301231363950 0.785697193007 -0.418506568299 0.783834226012 -0.400665843257 -0.138011274803 -0.276912033521
3.975755555000 -0.093877975469 -0.300829748952 0.785526907059 -0.419364193492 0.781240729851 -0.401551505593 -0.138075754779 -0.275851621571
3.976177777000 -0.093996573980 -0.300195399651 0.785067130256 -0.420691613013 0.781516811974 -0.402356015582 -0.138263345647 -0.275780271092
3.976600000000 -0.094845700870 -0.298201777130 0.783268978883 -0.421186415118 0.778617964960 -0.404788965811 -0.137836165547 -0.273799024563
3.977022222000 -0.094306853582 -0.299090381621 0.783929787785 -0.423061630904 0.780723796939 -0.404369619561 -0.138507890339 -0.275082166506
3.977444444000 -0.094877797688 -0.300314234972 0.783842741704 -0.425683338808 0.783052573011 -0.406283304132 -0.139544810888 -0.274891966880
3.977866666000 -0.095338496637 -0.299016770772 0.782615459258 -0.427051131912 0.781198477709 -0.408553630939 -0.139997250734 -0.274003712765
3.978288888000 -0.095124786810 -0.298668629168 0.782719873949 -0.427985222773 0.780744995941 -0.408787338877 -0.140433282998 -0.273846198440
3.978711111000 -0.095700992867 -0.297860702656 0.781225004323 -0.429127727448 0.778551450010 -0.411337009446 -0.140915343214 -0.272063799239
3.979133333000 -0.096679720385 -0.297800184711 0.781414636784 -0.431020227821 0.777070975286 -0.413763712152 -0.141221678242 -0.271241341824
3.979555555000 -0.096958199329 -0.298064458919 0.780638430844 -0.432584002088 0.779519374889 -0.415152844583 -0.142293155417 -0.271849259636
3.979977777000 -0.097119888978 -0.297889109468 0.780911739890 -0.435000995655 0.780214179493 -0.414566114665 -0.141978249793 -0.272295158081
3.980400000000 -0.097202663440 -0.297583463663 0.780614945977 -0.435503429744 0.778359147458 -0.415352470274 -0.142449090594 -0.271231458234
3.980822222000 -0.097492267129 -0.297079417467 0.779795928496 -0.436580525085 0.778211301622 -0.418214594278 -0.142793693768 -0.270568975196
3.981244444000 -0.098390600310 -0.296484445021 0.778482869797 -0.438460409158 0.776571121215 -0.420881921149 -0.142960501317 -0.269399411515
3.981666666000 -0.099592493626 -0.298099978298 0.778140022132 -0.440306998095 0.780203546358 -0.422775084465 -0.143598768622 -0.270659583016
3.982088888000 -0.098801472379 -0.296537176775 0.777161421619 -0.441424656986 0.778022643610 -0.422638562189 -0.143520115759 -0.269471150588
3.982511111000 -0.098558463930 -0.296029876512 0.777559594693 -0.442340008492 0.776176752226 -0.423070056389 -0.143788374022 -0.269385873079
3.982933333000 -0.099509948280 -0.296110308384 0.776307066683 -0.442968492582 0.776023866649 -0.425527752540 -0.144189358416 -0.267724865461
3.983355555000 -0.099553130793 -0.295851618228 0.775110499541 -0.445053174295 0.776227414739 -0.426376638456 -0.144971516545 -0.267427694994
3.983777777000 -0.100543452771 -0.295563493361 0.774878446048 -0.447326615149 0.776194827749 -0.429157356342 -0.146076329557 -0.267141546599
3.984200000000 -0.099081994161 -0.292989124507 0.774951947580 -0.445958910401 0.772421754188 -0.426584638259 -0.144182562341 -0.266920293054
3.984622222000 -0.101365937078 -0.294900229627 0.774227271349 -0.449523210713 0.775453591103 -0.431242979706 -0.145841598997 -0.266763246734
3.985044444000 -0.101616090179 -0.294248532990 0.774566350684 -0.450885001848 0.774298953844 -0.432808469557 -0.146523682707 -0.266423356282
3.985466666000 -0.101212890830 -0.294295680101 0.773488730632 -0.451395664850 0.773864225526 -0.432667874450 -0.146117156118 -0.265669305966
3.985888888000 -0.102906383507 -0.293372727723 0.770730824618 -0.454069923581 0.773460571695 -0.437654702692 -0.147483520613 -0.264035034274
3.986311111000 -0.101501673616 -0.293539800719 0.772532023299 -0.454296002575 0.773018191738 -0.435315282937 -0.146879193148 -0.264397875070
3.986733333000 -0.101908350822 -0.292558020862 0.771615272213 -0.454791929497 0.770245598705 -0.436227503595 -0.146238591890 -0.263836836408
3.987155555000 -0.102741503589 -0.292556967420 0.771367930878 -0.457956897967 0.772463936128 -0.437508565405 -0.147172208623 -0.264110093705
3.987577777000 -0.103426186632 -0.293039065348 0.771770466333 -0.459481084830 0.772502650923 -0.440591749170 -0.148024584402 -0.263536849984
3.988000000000 -0.103372238536 -0.291812949027 0.769930182257 -0.459697099637 0.770679613070 -0.441355505139 -0.147993627549 -0.262881075569
3.988422222000 -0.105146795156 -0.291632173914 0.769176492831 -0.464109053546 0.770389062078 -0.445269068890 -0.149677356083 -0.262459012011
3.988844444000 -0.105027599025 -0.291480086004 0.768463733939 -0.464051800311 0.770746778017 -0.446150480932 -0.149825124196 -0.262079076855
3.989266666000 -0.104629469990 -0.291805362189 0.768201020954 -0.464851326340 0.769977092926 -0.447468553292 -0.150558459613 -0.261348994089
3.989688888000 -0.105116295694 -0.291268033901 0.768364551688 -0.466083014783 0.768626285135 -0.446242779689 -0.149137034931 -0.261089376276
3.990111111000 -0.107133918781 -0.290270956397 0.767253580685 -0.469033626657 0.768757110286 -0.451073994219 -0.150923995585 -0.260645326037
3.990533333000 -0.106064547441 -0.290163016223 0.766123719535 -0.469562288418 0.768248337259 -0.451361038761 -0.150423280053 -0.259396082920
3.990955555000 -0.105907230093 -0.289673004095 0.765352665283 -0.470260067117 0.767368858406 -0.452191975129 -0.150993449479 -0.259620760660
3.991377777000 -0.106287763131 -0.289294972648 0.764855612917 -0.471871782003 0.765263325523 -0.453608891934 -0.151197182777 -0.258711024152
3.991800000000 -0.107752800969 -0.289451766918 0.766232843540 -0.472644877716 0.766458421790 -0.453161773918 -0.150545910867 -0.258819885150
3.992222222000 -0.107456471875 -0.289552621434 0.764961602613 -0.474920406972 0.766749047812 -0.455541006592 -0.151529143768 -0.258934335747
3.992644444000 -0.107663331922 -0.289308130037 0.764292638942 -0.475422066036 0.765595214625 -0.455444114681 -0.151006481408 -0.257962353324
3.993066666000 -0.108440062446 -0.289616639949 0.764457414468 -0.478388530254 0.767299596165 -0.458341415697 -0.152123481749 -0.258151877047
3.993488888000 -0.108662533421 -0.288904282702 0.762429043583 -0.479591451316 0.765955377927 -0.459145386774 -0.152203527828 -0.257414906043
3.993911111000 -0.109434986846 -0.287957948911 0.759964724411 -0.480863711122 0.763637550924 -0.463251262434 -0.152998126150 -0.255669189097
3.994333333000 -0.111655852732 -0.286777130331 0.759460355819 -0.486127885917 0.766568686010 -0.468190790103 -0.155509345384 -0.256578736382
3.994755555000 -0.110664841851 -0.287146893833 0.760087405163 -0.484021885766 0.762174168067 -0.465698902584 -0.153471325380 -0.255529649290
3.995177777000 -0.110790060551 -0.287459440409 0.759346647117 -0.485323304829 0.762877908707 -0.467835295841 -0.154183438617 -0.255218770621
3.995600000000 -0.110504496375 -0.286446838479 0.759098268434 -0.485652000110 0.761506891287 -0.466243665105 -0.153713718103 -0.254818509795
3.996022222000 -0.112049902275 -0.286011823344 0.757256284257 -0.488829399247 0.760540593355 -0.471792588677 -0.155094164800 -0.253606639322
3.996444444000 -0.111827874585 -0.286775216067 0.757880719210 -0.490468019141 0.763083081114 -0.471216676167 -0.155160342111 -0.254164895588
3.996866666000 -0.113109970313 -0.285899633957 0.756411537399 -0.491638176155 0.761629218918 -0.475384021564 -0.156675222176 -0.253680054684
3.997288888000 -0.112882451409 -0.285283165238 0.756157254444 -0.494099948697 0.760669818685 -0.474830699055 -0.156598789039 -0.253214568839
3.997711111000 -0.113270311144 -0.285588957520 0.755464532334 -0.493847625578 0.759994316905 -0.476540561281 -0.156344807624 -0.252273014402
3.998133333000 -0.114461172631 -0.285546580282 0.756446124410 -0.496546001639 0.761761792060 -0.477424251050 -0.156752213989 -0.253214214870
3.998555555000 -0.115304930984 -0.285222070686 0.755801368782 -0.498299598357 0.760038554161 -0.479238657297 -0.157246293812 -0.252353698647
3.998977777000 -0.114797166079 -0.284483207287 0.754057725365 -0.498094368887 0.758756024157 -0.478864245204 -0.156246220604 -0.251744588695
3.999400000000 -0.115502210264 -0.285354410149 0.755051789991 -0.499303702328 0.760168534714 -0.482242973991 -0.158226483245 -0.252302204352
3.999822222000 -0.115953849446 -0.283442849435 0.751452681382 -0.501933381028 0.757484772098 -0.483494024858 -0.157736108943 -0.250013994127
4.000244444000 -0.115857990880 -0.282679749960 0.750006302418 -0.502839046349 0.756720789323 -0.483993414665 -0.157668978857 -0.249584225301
4.000666666000 -0.116855106798 -0.283249308960 0.750015800908 -0.504042985604 0.758364996916 -0.486307793997 -0.158045905241 -0.249762805945
4.001088888000 -0.117040054299 -0.282665695754 0.749737742072 -0.506561570303 0.757209981387 -0.487943226324 -0.159006595667 -0.249225444232
4.001511111000 -0.117782814087 -0.282012242123 0.750102521834 -0.508499578431 0.755573653578 -0.490400404375 -0.159037035152 -0.248232962414
4.001933333000 -0.117704516177 -0.281989511611 0.747608349313 -0.507547876277 0.756296572719 -0.490419257694 -0.159065332593 -0.248799554842
4.002355555000 -0.118046502894 -0.281111777105 0.746180271097 -0.510703991035 0.754511197570 -0.491939022157 -0.158820025160 -0.247700390700
4.002777777000 -0.119608193437 -0.281083909927 0.746108200952 -0.512559073676 0.753754425734 -0.494522398198 -0.160297175272 -0.247689723365
4.003200000000 -0.120172128724 -0.280633871662 0.746648435456 -0.514212926145 0.753347883330 -0.497044250228 -0.160834752690 -0.246816520654
4.003622222000 -0.120166628735 -0.279652403879 0.745565728818 -0.515692490173 0.750246105568 -0.498437387483 -0.161186235873 -0.245708996936
4.004044444000 -0.121257360302 -0.279375627423 0.745020271389 -0.518200579599 0.750567239571 -0.500343984178 -0.162111147841 -0.245597535604
4.004466666000 -0.120220176494 -0.279834544553 0.742963787617 -0.517378575686 0.752098006340 -0.499550996737 -0.160186334316 -0.245420353480
4.004888888000 -0.121702674960 -0.278433833001 0.742851969893 -0.520877629271 0.748583179362 -0.501616363434 -0.161748226648 -0.244191993106
4.005311111000 -0.121680985172 -0.279100203770 0.742824227365 -0.521301090307 0.750796975074 -0.503412193257 -0.161989752189 -0.244506914303
4.005733333000 -0.122698127731 -0.277561196994 0.742039517958 -0.524592482878 0.747159095976 -0.507066419501 -0.163177919887 -0.243392950325
4.006155555000 -0.123031761953 -0.277735441095 0.741091710308 -0.524139199358 0.749156047117 -0.507921782347 -0.162745197595 -0.243572129070
4.006577777000 -0.123604969559 -0.277670686362 0.739734729206 -0.525345780765 0.748511190861 -0.509913498536 -0.163025074881 -0.243411481017
4.007000000000 -0.122584177885 -0.278503014394 0.738450948544 -0.522439468773 0.751967181318 -0.510408621296 -0.161257273398 -0.244060947360
4.007422222000 -0.124397931545 -0.276120414894 0.738032058021 -0.529037074396 0.745587611357 -0.512831080535 -0.164035205649 -0.241347930310
4.007844444000 -0.125456971849 -0.275179949057 0.735630121542 -0.530126049929 0.743903581076 -0.514436021194 -0.164188778130 -0.240543780003
4.008266666000 -0.126197387450 -0.274766917050 0.734874102000 -0.533629923660 0.743779563013 -0.515068864326 -0.163767604680 -0.240503923661
4.008688888000 -0.127455240819 -0.275017787509 0.734344582471 -0.536020656347 0.743795287737 -0.518494096933 -0.164737149336 -0.240609333001
4.009111111000 -0.127112394332 -0.274453478839 0.734455761312 -0.537157709837 0.741343158532 -0.520550974487 -0.164292628480 -0.239438008431
