# GHZ S RI R 50.000000000000
3.950000000000 -0.049749657834 -0.000020300078 0.348095798422 0.915466251474 0.374998187948 0.898991991096 -0.031713889096 0.025702061216
3.950422222000 -0.048856825946 0.001610051888 0.357616167462 0.913707182018 0.372890545346 0.902023216908 -0.032694202728 0.027880659997
3.950844444000 -0.047970061706 0.003156440533 0.363663115519 0.910570591224 0.369370523840 0.900528368904 -0.031697074303 0.027938761115
3.951266666000 -0.048279313768 0.003404024741 0.371608804669 0.907520924550 0.370065242409 0.901684558803 -0.032004040843 0.029636829636
3.951688888000 -0.046715751120 0.003291158060 0.372423220925 0.907317403569 0.370081434623 0.901579050439 -0.032619580447 0.029926325708
3.952111111000 -0.046310953293 0.004392778763 0.377923606080 0.906284971656 0.371115551882 0.900090738266 -0.031059885997 0.030218997782
3.952533333000 -0.046024307426 0.005078787548 0.381827704709 0.907324434180 0.372016027339 0.901789593109 -0.030582200955 0.031250992124
3.952955555000 -0.046332500831 0.005635667816 0.385555700579 0.905166202672 0.372795966624 0.902264932227 -0.030740194270 0.032044634016
3.953377777000 -0.046556313955 0.005161024187 0.385656905019 0.904829124073 0.374152159640 0.902557856983 -0.030981290364 0.032984895465
3.953800000000 -0.047079510868 0.006350335590 0.387135291790 0.904670836722 0.376462646330 0.900321308738 -0.029280662168 0.032873497546
3.954222222000 -0.046433516680 0.006424509813 0.388805071618 0.903425300716 0.376418733948 0.901313007692 -0.030153595656 0.032871402711
3.954644444000 -0.046503751983 0.006562820908 0.390256322152 0.902037220023 0.377824945573 0.901744024409 -0.030248647646 0.033391583246
3.955066666000 -0.047186354150 0.007784759968 0.393492157697 0.903529427099 0.377909543436 0.902797300589 -0.030106476831 0.034706680296
3.955488888000 -0.046379489817 0.007070289802 0.394064926981 0.903334736566 0.380639731923 0.901311267490 -0.029941284994 0.033385049233
3.955911111000 -0.046475856059 0.008001495758 0.394047351126 0.902854865792 0.381693228092 0.901372185108 -0.029220917826 0.034087516497
3.956333333000 -0.047416909506 0.007297429306 0.393528176976 0.900098642051 0.382261224620 0.901273021579 -0.029258789647 0.034921917730
3.956755555000 -0.047361820938 0.007864511150 0.395214790337 0.903753327285 0.382679921255 0.900751914547 -0.029912395768 0.033612936950
3.957177777000 -0.046323803708 0.007327837575 0.399280557738 0.899147151439 0.385289659342 0.899637473767 -0.028899339405 0.033844007657
3.957600000000 -0.046280109807 0.008087267004 0.400228590906 0.899882756217 0.387467446782 0.898027192185 -0.028375696713 0.033634793777
3.958022222000 -0.046911068319 0.008213962717 0.401292772506 0.903098776767 0.388305878442 0.899037040075 -0.029191048722 0.035008843690
3.958444444000 -0.046893967796 0.009722982643 0.402946478111 0.900745478511 0.388116817733 0.897708039197 -0.027490382262 0.035133716752
3.958866666000 -0.046989531816 0.008679809630 0.403733215473 0.901833893457 0.390794619770 0.901026793797 -0.029060631259 0.034862525392
3.959288888000 -0.047076967493 0.010207126816 0.407380839675 0.900841682532 0.392398834643 0.900061518033 -0.028114656104 0.036089946113
3.959711111000 -0.047068254591 0.009304084905 0.407856066601 0.900546664051 0.393851556655 0.899188490732 -0.028472346575 0.035449632757
3.960133333000 -0.046490902257 0.010233137854 0.409717439415 0.900430161478 0.394722459244 0.899747201155 -0.027845993540 0.036011594569
3.960555555000 -0.046987631858 0.010804226111 0.411530449263 0.900836623843 0.397313376232 0.899482937849 -0.027195944978 0.035963309380
3.960977777000 -0.046984561303 0.011489451594 0.412715700198 0.900789601456 0.398064112232 0.899829528559 -0.027015516243 0.036812033787
3.961400000000 -0.045777371859 0.011140070771 0.411243345410 0.898099886661 0.397082952423 0.900907070799 -0.026977185230 0.035983502462
3.961822222000 -0.046784762618 0.011772026113 0.415356452844 0.899885074038 0.399821367903 0.898994928516 -0.027182830170 0.036583963891
3.962244444000 -0.046722905379 0.012150847954 0.416330545331 0.899934280287 0.401530603280 0.897743048330 -0.027207708118 0.036993981800
3.962666666000 -0.046364808015 0.011978424133 0.418200876238 0.899235243095 0.404029643188 0.898485836329 -0.026610090913 0.035975419589
3.963088888000 -0.046740925634 0.012624161256 0.419248575008 0.898930385700 0.403660129514 0.896292486995 -0.026281372390 0.036378724314
3.963511111000 -0.045989726240 0.012341669100 0.421401244838 0.897620908670 0.405919787564 0.898232190176 -0.026567789174 0.036615698695
3.963933333000 -0.046775269516 0.013912253157 0.422862576149 0.899592147453 0.407738542008 0.898561160936 -0.025797306956 0.037281306777
3.964355555000 -0.046637687803 0.014305601360 0.424402000875 0.898788565316 0.407749800955 0.896168132778 -0.025330033076 0.037467881470
3.964777777000 -0.045589298916 0.014159893192 0.426464565659 0.898407753699 0.408911859839 0.896681143610 -0.024836428132 0.036443576657
3.965200000000 -0.045744373513 0.014285106413 0.427688204233 0.897166816591 0.411273359033 0.896249390477 -0.025148730304 0.037297621652
3.965622222000 -0.045746048086 0.015035338668 0.430385946985 0.896913320607 0.412126302584 0.896375279633 -0.024868118622 0.037806038742
3.966044444000 -0.044622499723 0.014927300269 0.433279267351 0.895622506587 0.415876427455 0.895979843579 -0.024397729541 0.037116954467
3.966466666000 -0.045523954189 0.014548706060 0.432994687972 0.895299197993 0.416578511542 0.897800029707 -0.024750786773 0.036953261525
3.966888888000 -0.045369975835 0.015225484792 0.434001763791 0.895850538230 0.417618874483 0.896131066780 -0.023900596083 0.037353807011
3.967311111000 -0.045087716024 0.015544752385 0.437546984664 0.894918419396 0.419116536563 0.894495013286 -0.023886046811 0.036883301956
3.967733333000 -0.044461772118 0.015803295902 0.438771524509 0.894432540864 0.421869831822 0.895436062092 -0.023544264575 0.037205845322
3.968155555000 -0.044432531071 0.016534641960 0.439266040077 0.894255652603 0.420383880334 0.895322306367 -0.023589158502 0.037493862121
3.968577777000 -0.044234468886 0.016068102885 0.440875569966 0.893583100772 0.423355244998 0.894474775657 -0.023997558133 0.037133637585
3.969000000000 -0.044371762945 0.014427999312 0.444609561633 0.894522518137 0.428861385405 0.895725482423 -0.024346896981 0.036937146865
3.969422222000 -0.044915617072 0.017007315272 0.443793504466 0.893753974519 0.426583186013 0.893403718956 -0.023009674052 0.037838852034
3.969844444000 -0.044487938078 0.016974097464 0.446032215248 0.892189776919 0.428710624269 0.892247473387 -0.022851530650 0.037559224384
3.970266666000 -0.044014363778 0.017033908209 0.446995747135 0.892329252019 0.430813736234 0.893314497219 -0.023010703900 0.037272643961
3.970688888000 -0.043814812027 0.017874572800 0.449233177126 0.891733550810 0.430354344759 0.892996505234 -0.022133270396 0.037666962309
3.971111111000 -0.043680921579 0.017897216838 0.451368438069 0.891526724911 0.433680006870 0.893712834695 -0.022782041812 0.037916101207
3.971533333000 -0.042923045564 0.018524720711 0.453944051712 0.890814467885 0.434759108709 0.891362680463 -0.021529691356 0.036509648771
3.971955555000 -0.042941602155 0.018096982651 0.454776998283 0.890383705481 0.437795231806 0.892135352998 -0.022194915961 0.037789535860
3.972377777000 -0.043103462312 0.018976109875 0.455983892739 0.889381588080 0.438332506905 0.890910158049 -0.021188248425 0.037504212436
3.972800000000 -0.043077770803 0.018904409366 0.456870111756 0.889694616589 0.438494667655 0.890947259692 -0.021454750022 0.037346858017
3.973222222000 -0.042685442501 0.019732510054 0.459024581265 0.889732105392 0.441003879695 0.891727044544 -0.020782827319 0.038321978356
3.973644444000 -0.042549894735 0.019131712983 0.461091146726 0.887987295681 0.443353673722 0.889656730162 -0.020876560883 0.036531335022
3.974066666000 -0.042299767354 0.018555776498 0.461557968444 0.886832011080 0.443538563916 0.890553655585 -0.021176579893 0.036581460112
3.974488888000 -0.042163943741 0.019207735335 0.464110012163 0.884847905919 0.445207978321 0.888850662832 -0.020985581785 0.037223719508
3.974911111000 -0.042336579294 0.019449882068 0.465877890231 0.885438415699 0.447438332848 0.888458383323 -0.021128669327 0.037247462696
3.975333333000 -0.041253459228 0.019332358867 0.466764858413 0.885112250641 0.449488203836 0.889430858263 -0.021019217599 0.036460082397
3.975755555000 -0.041733042055 0.019463617882 0.468418794780 0.884025639046 0.451307539387 0.886850598411 -0.020966954583 0.036943225884
3.976177777000 -0.041287544950 0.019760213897 0.470047887610 0.883744747175 0.452909509282 0.886449995209 -0.020316448227 0.037083210765
3.976600000000 -0.040400006868 0.021682144454 0.474711354790 0.885540475514 0.454517306208 0.886381677132 -0.018387717818 0.035950641158
3.977022222000 -0.041011844540 0.020436525572 0.472437322114 0.882653498231 0.454525750627 0.885795662727 -0.019867886513 0.036260654425
3.977444444000 -0.039465253870 0.020301833252 0.476907996177 0.882416316431 0.457408834876 0.887615734225 -0.019623451738 0.035879678655
3.977866666000 -0.040224073540 0.020494356095 0.476685026699 0.881197588175 0.459076788688 0.884916730075 -0.019232725096 0.035955115630
3.978288888000 -0.039178449484 0.020707140999 0.480010510535 0.879529744525 0.460263492030 0.884149505585 -0.018793136729 0.036147123292
3.978711111000 -0.039525385976 0.020977968839 0.480447306915 0.879318860056 0.461222699780 0.883278741897 -0.018445493065 0.035555259878
3.979133333000 -0.040485904879 0.020346841968 0.481097640858 0.878437459466 0.465087258978 0.881231597457 -0.019085842455 0.035865257658
3.979555555000 -0.039374515497 0.020722772346 0.483722563036 0.878167119091 0.465726674240 0.883089519998 -0.018763445436 0.035797652317
3.979977777000 -0.038633030017 0.020925265108 0.484973099887 0.876983624753 0.466050378126 0.882676929695 -0.018543681654 0.034992643229
3.980400000000 -0.039123017794 0.021710914938 0.486212732777 0.876562568653 0.466966015852 0.881250993453 -0.018713821265 0.035848584157
3.980822222000 -0.037653232933 0.020751330312 0.489069977300 0.875542738609 0.470715585677 0.881979204361 -0.018343732883 0.034244426238
3.981244444000 -0.038464175946 0.020521220439 0.489164437261 0.873573798227 0.472470783273 0.878878083514 -0.018637193052 0.034306889817
3.981666666000 -0.038169508307 0.020798403641 0.491266971814 0.875186503182 0.474055715288 0.881723509377 -0.019580774125 0.034086038856
3.982088888000 -0.037382444099 0.020764252103 0.492618900515 0.872778216860 0.475134189992 0.880344343017 -0.018368862514 0.033646126507
3.982511111000 -0.037704073647 0.021071482905 0.494764721291 0.871959945853 0.476503535390 0.878233307674 -0.019006522972 0.034040542353
3.982933333000 -0.036735142246 0.021476058465 0.496671799666 0.872192492896 0.478999716322 0.879496413818 -0.018165299534 0.033727531302
3.983355555000 -0.037014665737 0.021351082766 0.498263349513 0.871274118469 0.480200886663 0.878941595889 -0.018005911889 0.033554892686
3.983777777000 -0.036909186386 0.021291471071 0.498617047735 0.870247662803 0.482130950491 0.877270040102 -0.018228639241 0.033636495499
3.984200000000 -0.036564426999 0.023031024334 0.498820684188 0.870307370569 0.480112284325 0.874495500967 -0.016661750744 0.033582585737
3.984622222000 -0.036428938470 0.020736318389 0.502144657981 0.868103075343 0.486545827262 0.875679862397 -0.018289218337 0.033358636563
3.985044444000 -0.035762974906 0.020860288248 0.504573770414 0.866469627271 0.487935039886 0.874405898111 -0.018253845499 0.033028036511
3.985466666000 -0.035570229588 0.021397696629 0.504999797870 0.865854154188 0.488831443700 0.874885394406 -0.018227696357 0.032891660851
3.985888888000 -0.035298911392 0.020507313724 0.507039189107 0.863961134614 0.491234950515 0.873779166135 -0.018063648474 0.032456323254
3.986311111000 -0.035005677202 0.021595077257 0.508699542729 0.864953971230 0.491094268145 0.873103365080 -0.017344268546 0.032271510814
3.986733333000 -0.035432651939 0.021415533824 0.508669408377 0.862989409881 0.491293103225 0.870753504087 -0.017767152200 0.032437103476
3.987155555000 -0.034396186901 0.021295595303 0.511945288761 0.862902317017 0.493578901003 0.871426694617 -0.017105155736 0.031888698401
3.987577777000 -0.034351816995 0.021215980523 0.513047736590 0.862888365852 0.496621854515 0.870771750610 -0.017170963080 0.031417795594
3.988000000000 -0.034623748569 0.021076900331 0.514208525078 0.860703583123 0.497849796260 0.869226031430 -0.017512060933 0.031380797132
3.988422222000 -0.034827447531 0.020890131375 0.515889031529 0.860050891361 0.499846201252 0.868353801413 -0.018663263106 0.031189178249
3.988844444000 -0.033645824383 0.020985030720 0.518086037628 0.859245688342 0.501769412753 0.868734915246 -0.017530643694 0.031554671649
3.989266666000 -0.033212581435 0.021115234372 0.519722239980 0.858582472851 0.503363265879 0.868594386201 -0.018006202422 0.030925558801
3.989688888000 -0.033870768036 0.020986320659 0.520408445801 0.857099110336 0.503680386796 0.865745043731 -0.018033723354 0.030973978520
3.990111111000 -0.033825949091 0.020809076860 0.522146087130 0.856208669694 0.507818862324 0.864025365374 -0.017863405558 0.031429284203
3.990533333000 -0.033296405858 0.020340289409 0.523044671065 0.854872665717 0.507360490095 0.864715302818 -0.016996628409 0.030144687688
3.990955555000 -0.032992206203 0.020472720382 0.525510090692 0.854112304210 0.508022066875 0.863943941722 -0.017334737707 0.029701298180
3.991377777000 -0.033318274790 0.020634848266 0.526188679868 0.853262252980 0.509882854006 0.862709275121 -0.017933842393 0.029965796627
3.991800000000 -0.032197409871 0.020813500140 0.529146792596 0.852134674583 0.512377015174 0.861560667264 -0.016929273345 0.030166585645
3.992222222000 -0.032626759767 0.020195650556 0.530498695525 0.851204488217 0.513978155451 0.861654335417 -0.017930961255 0.029003823516
3.992644444000 -0.032670933005 0.020376893425 0.530936074382 0.849832790360 0.514437849985 0.859967295671 -0.017629383590 0.029333922319
3.993066666000 -0.032050334600 0.020023318853 0.533319489522 0.849918856065 0.516713816761 0.860170747863 -0.017296276221 0.028301344828
3.993488888000 -0.031926851962 0.019508290519 0.534646320090 0.848124130136 0.518088837317 0.859039044137 -0.017497171119 0.028477397832
3.993911111000 -0.031783517239 0.019505468186 0.536641380196 0.846503197515 0.520816030070 0.857520244541 -0.018001072304 0.028418702581
3.994333333000 -0.031713873217 0.019108704230 0.537779673924 0.845560847225 0.523019667629 0.856716437812 -0.018286917180 0.028403072377
3.994755555000 -0.032572542299 0.019492158748 0.538244497584 0.844814705090 0.523567752659 0.854468179196 -0.018671549360 0.028450934959
3.995177777000 -0.032012963733 0.019171569756 0.539486226273 0.843692948476 0.525801208225 0.854768564232 -0.019136194397 0.027973852519
3.995600000000 -0.031837254637 0.019802186626 0.540774911724 0.843144431815 0.524686663161 0.853077681163 -0.017894469728 0.028668763281
3.996022222000 -0.031827160882 0.018892942314 0.542701809408 0.841541289294 0.529200995824 0.851698928218 -0.019071801463 0.027815519899
3.996444444000 -0.031604275440 0.018872880168 0.543643032148 0.841225862048 0.529176700205 0.852835032491 -0.018308945334 0.027341245198
3.996866666000 -0.031187376612 0.018908612056 0.546135857647 0.840577910720 0.533014881540 0.852035812235 -0.019133959132 0.027536693072
3.997288888000 -0.031481515665 0.019010762367 0.547428682146 0.839733083068 0.531473771862 0.849949233082 -0.018528698469 0.027193829672
3.997711111000 -0.031162806333 0.018505331525 0.548419870035 0.837915148853 0.535309632177 0.850571753393 -0.018917483491 0.027058023469
3.998133333000 -0.030894034858 0.018728094422 0.549584753634 0.837154529749 0.535844308575 0.848974578379 -0.019021930056 0.026871590113
3.998555555000 -0.030807785940 0.018537698879 0.551355489476 0.835614532352 0.537897174584 0.848711430366 -0.019674616328 0.027123335089
3.998977777000 -0.031160236773 0.018733074826 0.551639390360 0.835050778097 0.537109717179 0.846505625198 -0.018855408600 0.027079896694
3.999400000000 -0.030507551339 0.018408776056 0.553678280463 0.834739969259 0.541152727692 0.846931976282 -0.019938390849 0.026633408717
3.999822222000 -0.031191329754 0.018207789069 0.554695168287 0.831678560872 0.540805577907 0.845276484331 -0.019521384311 0.026733828764
4.000244444000 -0.031025330374 0.018258494257 0.555370974969 0.830799304655 0.540977936213 0.842535198727 -0.019210477061 0.027046555365
4.000666666000 -0.030521426470 0.017689371833 0.556482689359 0.829628758854 0.544358546866 0.843707567747 -0.019478314747 0.026427105347
4.001088888000 -0.030776961814 0.018050319063 0.558649370045 0.829413242937 0.545108013794 0.842208092959 -0.019508409068 0.026203700195
4.001511111000 -0.030878393768 0.017108640215 0.559193357804 0.828193536325 0.547310068614 0.840413057347 -0.019381649209 0.025576583377
4.001933333000 -0.031190656135 0.017952113661 0.558895283124 0.826948912811 0.547037796088 0.839950400118 -0.020065837239 0.026449912500
4.002355555000 -0.031249492937 0.017294812249 0.561341154944 0.825897518624 0.549256405350 0.838151128248 -0.019804791710 0.025609853322
4.002777777000 -0.031210708922 0.018266388426 0.563564283713 0.824674759384 0.550169043042 0.837694021733 -0.021215648232 0.026196314888
4.003200000000 -0.031022852784 0.017032543208 0.565367545092 0.824226176509 0.552809149712 0.835524593460 -0.020030407614 0.025922410826
4.003622222000 -0.031310356022 0.017340733393 0.565826436923 0.823256703458 0.554159742516 0.833797564562 -0.020715235142 0.026203125315
4.004044444000 -0.031109555428 0.017694907663 0.568749831341 0.821961206851 0.554423860894 0.832229309906 -0.020733678239 0.025853594065
4.004466666000 -0.031915373364 0.016932688361 0.566162025583 0.820468600969 0.554834468896 0.833069676605 -0.020380041668 0.025193773661
4.004888888000 -0.031052425672 0.017556172505 0.570427677188 0.820111809421 0.557150389426 0.830424511154 -0.020720955157 0.026183212594
4.005311111000 -0.030799999108 0.016603490787 0.570863538389 0.818878937306 0.559385295300 0.832168814772 -0.020447265709 0.024962813279
4.005733333000 -0.031607993945 0.016865367328 0.573097475881 0.817935024060 0.560745296309 0.828032587330 -0.021209066998 0.025159998114
4.006155555000 -0.031228093053 0.016224061337 0.573445985145 0.817303076929 0.562755008210 0.828422628579 -0.020296140254 0.025112357584
4.006577777000 -0.031273075893 0.015968074576 0.574888177364 0.816023516968 0.565647642092 0.827867184721 -0.021084934039 0.024680882817
4.007000000000 -0.030731262634 0.015815085137 0.570359060842 0.818054938047 0.567633424976 0.832081796631 -0.019786580990 0.024621315332
4.007422222000 -0.031579284590 0.016362377815 0.577130253543 0.812845852815 0.566006268851 0.825453542259 -0.021057831086 0.025110150995
4.007844444000 -0.031407024451 0.016028099462 0.578628589159 0.810621798406 0.569017425465 0.822058701802 -0.021566523665 0.026035186537
4.008266666000 -0.031618968529 0.016814192216 0.578902132320 0.809917043432 0.567640875496 0.823565777256 -0.022106049217 0.025619803495
4.008688888000 -0.031780439729 0.016666112781 0.582390107003 0.810031277685 0.571184521111 0.822293405548 -0.022687358943 0.024815199884
4.009111111000 -0.032716082906 0.015497376273 0.583142928174 0.809877249758 0.573276208309 0.818331118572 -0.022077711320 0.023829265762
4.009533333000 -0.031647535286 0.016333532790 0.584148011061 0.806059468640 0.572225032243 0.819542329820 -0.022272602548 0.025212586148
4.009955555000 -0.032416087999 0.016603566435 0.585011557218 0.806007038524 0.572942612517 0.817005779490 -0.022604349478 0.024806615960
4.010377777000 -0.031935040481 0.016256636486 0.584788438110 0.803830639913 0.573170571537 0.819108783796 -0.022004899038 0.024521814123
4.010800000000 -0.032457742798 0.015642116784 0.585189766072 0.804621254454 0.576838937373 0.816006900599 -0.021697357249 0.025099088067
