# GHZ S RI R 50.000000000000
3.950000000000 -0.000414204890 -0.450548092773 0.814565923823 -0.082729549604 0.801305815852 -0.106850967579 -0.061924024986 -0.452418561804
3.950422222000 -0.000047039371 -0.450361984212 0.813854515540 -0.089806889690 0.800767898489 -0.104373050484 -0.067032585742 -0.451104514511
3.950844444000 -0.001122681633 -0.450276988659 0.813405857762 -0.096264955596 0.800133213771 -0.102965849772 -0.070441552537 -0.449351610145
3.951266666000 -0.002488334543 -0.450866695657 0.812763750898 -0.101207069772 0.800070911756 -0.103261653614 -0.072786904060 -0.448253041481
3.951688888000 -0.003481720802 -0.450759185733 0.811326843302 -0.103653849455 0.800569373939 -0.102819442476 -0.073909793264 -0.447066409321
3.952111111000 -0.004362661833 -0.450940308544 0.812081732699 -0.107969636007 0.799714359825 -0.103833009190 -0.076697087401 -0.446399013681
3.952533333000 -0.004998525258 -0.450962701482 0.812400885291 -0.108952877113 0.799304431949 -0.104934922853 -0.078399923985 -0.445526775691
3.952955555000 -0.006146031249 -0.451320112833 0.811847415644 -0.112805071829 0.799255060951 -0.105788676548 -0.080126228579 -0.445224423822
3.953377777000 -0.006296382434 -0.450423837346 0.811058030603 -0.112783229596 0.800212054098 -0.106291536421 -0.079810591800 -0.445040574586
3.953800000000 -0.006421599179 -0.449416351809 0.811544136168 -0.114598620724 0.799355950876 -0.107651134347 -0.081308812659 -0.444214240888
3.954222222000 -0.007617464394 -0.450304056570 0.811008257922 -0.117140940840 0.799552365784 -0.108382612653 -0.082082658766 -0.443622416747
3.954644444000 -0.008643771433 -0.449934190829 0.810717114914 -0.117799232104 0.799809374518 -0.110279634303 -0.082574577137 -0.444095167529
3.955066666000 -0.009221891924 -0.449999016209 0.811556985690 -0.120609788672 0.799770664895 -0.110483125039 -0.083323270298 -0.444000568149
3.955488888000 -0.009390581737 -0.449977245529 0.811594770788 -0.120989517475 0.800024373455 -0.111827668913 -0.083700362479 -0.443082956903
3.955911111000 -0.010042813745 -0.449546233772 0.811410726706 -0.122688785129 0.799689835502 -0.112758648055 -0.084760460789 -0.442797022459
3.956333333000 -0.011611729742 -0.449693967265 0.809608505800 -0.123275642972 0.800682556773 -0.113503497439 -0.084255732317 -0.441646037778
3.956755555000 -0.010820261201 -0.450207064034 0.811691890417 -0.125049223962 0.800608127775 -0.116074704054 -0.086607648870 -0.442196853014
3.957177777000 -0.012269159601 -0.449686805601 0.810575968382 -0.126247710476 0.800091243462 -0.116466149960 -0.086510496345 -0.440874087490
3.957600000000 -0.011962697359 -0.448768463407 0.811769212571 -0.128505734568 0.799076657631 -0.118543770832 -0.089106066885 -0.441531572734
3.958022222000 -0.012606456021 -0.449392541019 0.812119775246 -0.129060131823 0.800330665659 -0.119313868588 -0.088090024281 -0.441210767701
3.958444444000 -0.012481132609 -0.448067054042 0.811438083150 -0.131408229701 0.799449031232 -0.119630867669 -0.089422273742 -0.440770859326
3.958866666000 -0.012954575534 -0.449211639355 0.811678548379 -0.130976759708 0.802136815434 -0.122076596463 -0.089887456154 -0.441732076562
3.959288888000 -0.014016014150 -0.448183641177 0.811935498436 -0.132927190845 0.800340257431 -0.123093226082 -0.090367488513 -0.440987169433
3.959711111000 -0.014607309809 -0.449154218441 0.811609498998 -0.133941250895 0.800782062792 -0.124546710468 -0.091313533770 -0.439611412724
3.960133333000 -0.014897177694 -0.449245260706 0.810967894605 -0.135190869310 0.801279870841 -0.125721499048 -0.091971378406 -0.439597212967
3.960555555000 -0.015309749081 -0.448741171988 0.812340357451 -0.137055169889 0.801388823815 -0.127448910323 -0.093196316282 -0.440015520974
3.960977777000 -0.015777264903 -0.448023268901 0.812053490523 -0.138123706738 0.801296917724 -0.127875574064 -0.093476963654 -0.439773643321
3.961400000000 -0.015689646883 -0.447760859164 0.810848588097 -0.139097816091 0.802417711642 -0.125438346083 -0.091972756404 -0.438909902659
3.961822222000 -0.017331227169 -0.447882383299 0.812007990918 -0.140555289591 0.800660089926 -0.129553290411 -0.094042308833 -0.438565943673
3.962244444000 -0.017414593043 -0.447882464705 0.812151907075 -0.142519983183 0.800414372012 -0.131191189041 -0.095332333850 -0.438279059410
3.962666666000 -0.018413339954 -0.448146751998 0.812198710636 -0.143703085063 0.802328836279 -0.134322199653 -0.097068067137 -0.439470109059
3.963088888000 -0.018683148642 -0.447576103701 0.812086595258 -0.145543386187 0.800028655802 -0.134089413248 -0.097244136386 -0.437320097984
3.963511111000 -0.019512598048 -0.447940665579 0.811824746240 -0.146542877085 0.801188670614 -0.134600917919 -0.097101666019 -0.437315316964
3.963933333000 -0.020061311949 -0.447912791647 0.812097448532 -0.147910878365 0.801645654196 -0.137372096265 -0.098793994475 -0.437348165058
3.964355555000 -0.020250192196 -0.447145397542 0.812025231045 -0.149894970311 0.800261253572 -0.137209761353 -0.099274689647 -0.436684631317
3.964777777000 -0.020543398373 -0.447060925154 0.811987322374 -0.150749640796 0.800534566120 -0.137428527183 -0.099345070691 -0.436030853517
3.965200000000 -0.021310370147 -0.446574522923 0.812105123741 -0.151929686893 0.799730796101 -0.139906393010 -0.101081782968 -0.436256379722
3.965622222000 -0.021965690819 -0.446145688718 0.811634076400 -0.153614792139 0.800466296272 -0.140607758844 -0.101334249510 -0.436212028239
3.966044444000 -0.022493259001 -0.446858297045 0.811807995716 -0.155215248786 0.800877216382 -0.143152559342 -0.102748105123 -0.435872044288
3.966466666000 -0.023253358848 -0.447343724027 0.812015529819 -0.156015369363 0.801889513334 -0.143782712968 -0.102882784478 -0.435288780374
3.966888888000 -0.023372213022 -0.447253800488 0.811875920980 -0.157505253617 0.801397351469 -0.144496628137 -0.103631641511 -0.434642853531
3.967311111000 -0.023803344786 -0.446336388331 0.812276958975 -0.159498979547 0.800714357662 -0.146040883499 -0.104769416371 -0.434721385736
3.967733333000 -0.025291319375 -0.446693491429 0.811980749038 -0.160504805486 0.801118309854 -0.147849667034 -0.105163411451 -0.434446944948
3.968155555000 -0.024908198124 -0.446666311639 0.811325956095 -0.161907940964 0.801520083643 -0.147357803936 -0.105312556015 -0.434348898243
3.968577777000 -0.025736400119 -0.446325132812 0.811519045757 -0.163613561776 0.801196264600 -0.149738957452 -0.107027496601 -0.434235306410
3.969000000000 -0.026105545897 -0.446072066945 0.812300577020 -0.163487863013 0.799902647499 -0.153305105129 -0.110494845663 -0.432222202700
3.969422222000 -0.027257834381 -0.446459164751 0.811607005899 -0.166298079445 0.801910950525 -0.152818480800 -0.108067730905 -0.433678030593
3.969844444000 -0.027581069816 -0.445650077747 0.811374497353 -0.167640599294 0.801039247486 -0.153836116777 -0.109322068390 -0.433044698571
3.970266666000 -0.028338687133 -0.446451215250 0.811372264068 -0.168823403781 0.801478052208 -0.155283175278 -0.109687426220 -0.432167934387
3.970688888000 -0.028212985515 -0.445910154300 0.811229493909 -0.170393012415 0.801915932742 -0.155292881912 -0.110141031864 -0.432785964660
3.971111111000 -0.029049314630 -0.446490976095 0.811296388810 -0.171941259938 0.802687018910 -0.156942665198 -0.110950939297 -0.432422827195
3.971533333000 -0.030557879827 -0.445206562473 0.811088630311 -0.173039508620 0.800345001953 -0.159015730511 -0.111541487314 -0.431391820510
3.971955555000 -0.031128687237 -0.445900802049 0.810924733706 -0.174673989269 0.802036159642 -0.161809926215 -0.113637134674 -0.432004677590
3.972377777000 -0.031253186421 -0.445146563874 0.810864107946 -0.175905765304 0.800705505366 -0.161628998537 -0.113815978017 -0.430818224293
3.972800000000 -0.031828328695 -0.445747488638 0.810823159744 -0.177384227453 0.801530509020 -0.162291700756 -0.113915816254 -0.431059315424
3.973222222000 -0.032915232467 -0.445769524088 0.810323049582 -0.178707232868 0.801943589815 -0.163783291383 -0.114784066091 -0.430550013365
3.973644444000 -0.033175226334 -0.445400604034 0.810946581068 -0.180036779059 0.801150182925 -0.165169783379 -0.115487347425 -0.429621412158
3.974066666000 -0.033140240784 -0.446137148837 0.811004913727 -0.181329438011 0.801954554536 -0.164618561268 -0.115482092385 -0.429440991526
3.974488888000 -0.034458537745 -0.445230695555 0.810550983153 -0.183115258367 0.801678682944 -0.167428403348 -0.116644457260 -0.429783153169
3.974911111000 -0.034999927421 -0.444599107739 0.810468668333 -0.184467264194 0.800751525482 -0.168542919260 -0.117652486764 -0.429018520887
3.975333333000 -0.035386868312 -0.445505056115 0.810563064877 -0.185692036331 0.802033806718 -0.170287043780 -0.118757076880 -0.428756279374
3.975755555000 -0.036487712536 -0.445566449269 0.810695146067 -0.187386592074 0.801329581260 -0.171406565364 -0.118803625545 -0.427916717851
3.976177777000 -0.037196865923 -0.444841898992 0.810262400587 -0.188452181529 0.801606778137 -0.172380509652 -0.119194098538 -0.428139588984
3.976600000000 -0.038745418275 -0.443553151930 0.809685870564 -0.190016758353 0.800430385069 -0.175536542613 -0.120685863093 -0.427549590991
3.977022222000 -0.038050460847 -0.444084777095 0.810406039560 -0.191556061227 0.801596386756 -0.174379816975 -0.120401290688 -0.428250955582
3.977444444000 -0.038573297232 -0.445613662886 0.810224848748 -0.192918959781 0.802962051278 -0.175784796663 -0.121651559440 -0.427612453007
3.977866666000 -0.039376599438 -0.444018254293 0.809757196696 -0.193715633225 0.801206843632 -0.177587752419 -0.122167240813 -0.426693271642
3.978288888000 -0.039526472707 -0.443819104087 0.809468784879 -0.195290908062 0.801371191353 -0.178282557467 -0.122908457475 -0.426743580822
3.978711111000 -0.040206652978 -0.443571351791 0.809512944257 -0.196871042656 0.800875998665 -0.179982419284 -0.124015858698 -0.425994893639
3.979133333000 -0.042191555919 -0.443939889645 0.809537023051 -0.198409404085 0.800341798431 -0.183590256924 -0.125234393030 -0.424747056713
3.979555555000 -0.042152868383 -0.444255817141 0.809478562284 -0.200095912183 0.802005279923 -0.183132081609 -0.125566947446 -0.425764138804
3.979977777000 -0.042346321157 -0.443806953891 0.809298570040 -0.200932943082 0.801849819191 -0.182750852341 -0.125085653428 -0.425958855199
3.980400000000 -0.042964066070 -0.443821737489 0.809474935554 -0.202658702104 0.801005886527 -0.184408559056 -0.126381712642 -0.424991589308
3.980822222000 -0.043650515231 -0.444002558464 0.809314325499 -0.203952355161 0.802080246926 -0.186324192993 -0.127495672496 -0.425118484640
3.981244444000 -0.044660515875 -0.443547152075 0.809564115955 -0.204902064789 0.800735721953 -0.187736316939 -0.127051729507 -0.423797182330
3.981666666000 -0.046137687069 -0.445391092461 0.809156372305 -0.205583947750 0.802144766319 -0.189410957928 -0.127572541843 -0.423785899476
3.982088888000 -0.045386604970 -0.443899266013 0.809234228492 -0.207125264378 0.802313826286 -0.188737495923 -0.127788003914 -0.424381111991
3.982511111000 -0.046315603329 -0.443316407157 0.808803058003 -0.209483314779 0.801542086041 -0.192181449456 -0.130045528968 -0.423975058196
3.982933333000 -0.046990208755 -0.444586362104 0.808910368871 -0.210267138814 0.802776130784 -0.192528738178 -0.130016518325 -0.423304230095
3.983355555000 -0.047444923803 -0.444277348210 0.808028780304 -0.211832155109 0.802896424786 -0.194130746372 -0.131650389573 -0.422992679982
3.983777777000 -0.048309517351 -0.444199557768 0.808698693676 -0.213701959970 0.802813109442 -0.195708575698 -0.132200689407 -0.422967578750
3.984200000000 -0.048139889782 -0.441310376125 0.808031895506 -0.215221947577 0.801511720424 -0.196041422166 -0.131916755313 -0.423923588311
3.984622222000 -0.050757658965 -0.443600261096 0.807874824634 -0.216361735532 0.802122551682 -0.198937180006 -0.133229013134 -0.421788959736
3.985044444000 -0.051099199476 -0.442945811284 0.808151909756 -0.217647626726 0.801277540939 -0.200101139018 -0.133890440584 -0.421475930656
3.985466666000 -0.050934290823 -0.443761209729 0.807880907909 -0.218992138038 0.802980873416 -0.200649459390 -0.134378478147 -0.421625321819
3.985888888000 -0.052794232121 -0.443553300618 0.807332061060 -0.220825273413 0.803385924640 -0.202830042584 -0.135308981556 -0.421140347689
3.986311111000 -0.051434648173 -0.443044156469 0.807431784058 -0.221249082094 0.802561353439 -0.202404606327 -0.135379735206 -0.420985443887
3.986733333000 -0.052559317818 -0.442445209138 0.807383542683 -0.222386102099 0.800962886510 -0.203493324567 -0.134957725177 -0.420304125754
3.987155555000 -0.053643189444 -0.442740101418 0.808018936848 -0.224327528308 0.802319174895 -0.203905883751 -0.135571383820 -0.420877564852
3.987577777000 -0.054113739302 -0.443310747498 0.807309299380 -0.224905477245 0.802309576200 -0.206081273119 -0.136306294186 -0.419649256002
3.988000000000 -0.054992340967 -0.442236525937 0.806925360794 -0.226702466719 0.802235584821 -0.208156385673 -0.137491275043 -0.419703266014
3.988422222000 -0.056844865898 -0.442160775438 0.806674472751 -0.229156439040 0.800825805242 -0.210827386893 -0.138955228628 -0.418751428519
3.988844444000 -0.057172992357 -0.442463564438 0.806838168138 -0.230168550544 0.802244149977 -0.211629507355 -0.139569456909 -0.419207326657
3.989266666000 -0.056572053524 -0.443214032825 0.806471285926 -0.231635073676 0.802837850898 -0.212518548640 -0.140955976207 -0.418737127501
3.989688888000 -0.058241239800 -0.442386098764 0.806284720327 -0.233141853200 0.801403794518 -0.213727913210 -0.140271977899 -0.417655363901
3.990111111000 -0.060448483608 -0.441391063269 0.804928388091 -0.234679577897 0.800662836144 -0.216600734132 -0.141086070877 -0.416725860477
3.990533333000 -0.059481994951 -0.442148249241 0.806182121412 -0.235620842997 0.802432279144 -0.216517963714 -0.141592351186 -0.417507490666
3.990955555000 -0.059440840593 -0.441800026664 0.806872734271 -0.237506112422 0.801953180275 -0.216121925538 -0.142185673971 -0.417828389035
3.991377777000 -0.060401068913 -0.441547516949 0.805808691747 -0.238623745127 0.801574490622 -0.218985958098 -0.143350174382 -0.416962715537
3.991800000000 -0.063034980547 -0.440889418582 0.803878029452 -0.239142066070 0.799516489013 -0.221981344595 -0.143386724295 -0.414623540221
3.992222222000 -0.062821417280 -0.441564974865 0.804400384121 -0.241845041318 0.802076751844 -0.223060935260 -0.145036085080 -0.416078408592
3.992644444000 -0.063197899283 -0.441840961205 0.805185311946 -0.243251157936 0.801944526224 -0.222553633576 -0.144480040729 -0.415395776146
3.993066666000 -0.064179588574 -0.441974095656 0.804987705896 -0.245179166014 0.801840201896 -0.224920225260 -0.145967865819 -0.414899604374
3.993488888000 -0.064816295406 -0.441718823975 0.805416130308 -0.246407616562 0.801521054915 -0.225537483456 -0.146176051045 -0.414789436941
3.993911111000 -0.066132269990 -0.441570723466 0.804401184663 -0.247648702852 0.801598666885 -0.228955527717 -0.147713692281 -0.413900869999
3.994333333000 -0.067723933327 -0.439693319899 0.802497567954 -0.248459406193 0.800581766933 -0.231242824427 -0.148013850015 -0.413912723462
3.994755555000 -0.068077124400 -0.440353500719 0.803399254604 -0.250608447009 0.800337720100 -0.231822689150 -0.148254487692 -0.413115297845
3.995177777000 -0.067939797389 -0.441498461092 0.804393580057 -0.250883839361 0.801583354081 -0.232606241773 -0.148930707053 -0.413191568794
3.995600000000 -0.068404650860 -0.439911559363 0.803889571772 -0.252429002155 0.799687175191 -0.232706571958 -0.148863742171 -0.412560083615
3.996022222000 -0.070509991669 -0.440303725098 0.802641794867 -0.255663149964 0.801014867453 -0.236706519371 -0.150894774230 -0.412010797714
3.996444444000 -0.069701689571 -0.440793979892 0.802250995461 -0.255497700496 0.801141930380 -0.235881982206 -0.150378954870 -0.411596323069
3.996866666000 -0.071993723245 -0.441422667874 0.804355873544 -0.258213669910 0.803634637065 -0.238499122412 -0.152457114429 -0.413423548471
3.997288888000 -0.071550840152 -0.440033094724 0.802860828723 -0.259364869858 0.801356803177 -0.238203168057 -0.151961986737 -0.412253268858
3.997711111000 -0.073316771123 -0.440453362986 0.801459633394 -0.261347507165 0.802312748370 -0.242184287211 -0.153964249290 -0.410865776892
3.998133333000 -0.073954716906 -0.440104323708 0.801979934539 -0.261454610751 0.801064839990 -0.242669389726 -0.153283510791 -0.410727871394
3.998555555000 -0.075595010695 -0.440408779104 0.801583607265 -0.264083174778 0.801845844505 -0.244446431599 -0.154165124359 -0.410474248625
3.998977777000 -0.075752774660 -0.439548265435 0.802115507313 -0.264777234459 0.800457174901 -0.245316235691 -0.154110925216 -0.409932347099
3.999400000000 -0.076738928207 -0.440627625936 0.803520070301 -0.268042212502 0.801554597047 -0.248096855855 -0.157159535589 -0.409818995277
3.999822222000 -0.077452491755 -0.439287441181 0.800327126272 -0.267781243056 0.801405441759 -0.248052584168 -0.155590288192 -0.409010889338
4.000244444000 -0.077781205912 -0.438112965962 0.799934580492 -0.269067877961 0.799254355236 -0.249418937711 -0.156071072453 -0.407847090196
4.000666666000 -0.079227011163 -0.439159354123 0.800499162258 -0.270567924524 0.801330525950 -0.251333209658 -0.157017712190 -0.408083204708
4.001088888000 -0.079536501366 -0.438520703953 0.799684298907 -0.273121750916 0.800501693770 -0.252683442847 -0.158081283806 -0.407546864887
4.001511111000 -0.080960432470 -0.438553608566 0.801279154181 -0.273548947364 0.800970260653 -0.255207607211 -0.158526268858 -0.407840539317
4.001933333000 -0.081005085660 -0.437988222457 0.798776211550 -0.275251358942 0.800433936124 -0.255749459194 -0.158901041004 -0.406953239716
4.002355555000 -0.081817446293 -0.437580213957 0.798482435063 -0.276179343040 0.800309709631 -0.256391477148 -0.158640980095 -0.406929626909
4.002777777000 -0.084135515178 -0.438288847412 0.800653515856 -0.278967692669 0.800846211340 -0.259792200553 -0.161041286060 -0.407121227418
4.003200000000 -0.084409197894 -0.437878341100 0.798312224202 -0.279233552477 0.800333019577 -0.260146811847 -0.160208579318 -0.406024915327
4.003622222000 -0.085246115257 -0.436945921408 0.798772405781 -0.281908578903 0.798568982466 -0.262301488103 -0.161627711747 -0.405028418821
4.004044444000 -0.086311371049 -0.436638223865 0.798751516724 -0.284677668799 0.797410569340 -0.263234398593 -0.162414665310 -0.404198258437
4.004466666000 -0.085541801893 -0.437123090324 0.796610049595 -0.283018781921 0.800952206763 -0.263852587010 -0.161425078656 -0.404997696700
4.004888888000 -0.088063600330 -0.435955259541 0.797202887064 -0.286692537838 0.797381158154 -0.266704925651 -0.163419477019 -0.403359133036
4.005311111000 -0.088011779754 -0.437073226263 0.797270442079 -0.286235419956 0.801014716805 -0.267709029099 -0.163828312449 -0.404863499892
4.005733333000 -0.089709685105 -0.435547973920 0.797641158435 -0.289467242328 0.797787538029 -0.270666995572 -0.165187761717 -0.403429185308
4.006155555000 -0.090229392922 -0.435987896943 0.796663145392 -0.288641555499 0.799964314601 -0.271800348835 -0.164850739278 -0.403796713116
4.006577777000 -0.091355897520 -0.435845311195 0.796525905793 -0.291414872359 0.799090007934 -0.273742645804 -0.166071804497 -0.402919555452
4.007000000000 -0.090319775452 -0.436580653344 0.794979564361 -0.290442604500 0.801462324245 -0.272942840669 -0.164069894376 -0.403017738826
4.007422222000 -0.093009312304 -0.434816470178 0.795073374355 -0.293855692514 0.798950077732 -0.277011700368 -0.167538111804 -0.402104374596
4.007844444000 -0.094903393500 -0.433674458750 0.793085057414 -0.296537427193 0.796974464964 -0.278931778044 -0.167956466028 -0.400178985537
4.008266666000 -0.095750838047 -0.433956963480 0.793344432640 -0.297348308323 0.797331431255 -0.279562697960 -0.167383501908 -0.400789208280
4.008688888000 -0.098017443176 -0.434883909415 0.794613170676 -0.301081763851 0.799125868685 -0.281843930955 -0.168752987643 -0.401362366295
4.009111111000 -0.098041247616 -0.434013622246 0.795062440401 -0.301646917664 0.796951471188 -0.285004785523 -0.169582504064 -0.400064444442
