# GHZ S RI R 50.000000000000
3.950000000000 -0.049308101774 0.001544649043 0.350335491367 0.916746238550 0.375075308144 0.902397851670 -0.031804155907 0.027295817092
3.950422222000 -0.048624508574 0.002247759872 0.357076893943 0.913792618297 0.371289116118 0.902402233331 -0.032870032954 0.027922167821
3.950844444000 -0.047378438477 0.004681655052 0.365962559590 0.912191441845 0.370384218612 0.903848720758 -0.031462915886 0.029456695635
3.951266666000 -0.048677586190 0.004793181722 0.368039038870 0.912105325640 0.369387999932 0.903089749290 -0.032914114278 0.030845916924
3.951688888000 -0.046225142539 0.004390683919 0.373175681040 0.909600750018 0.371013723805 0.902956517473 -0.032046216003 0.030945070546
3.952111111000 -0.046383171923 0.005841838763 0.378007052947 0.908427780017 0.371400352509 0.903996738651 -0.031485180214 0.031404970001
3.952533333000 -0.046207249836 0.006181194036 0.379272995816 0.909740446565 0.372269842162 0.903573579082 -0.030981590811 0.032088695106
3.952955555000 -0.046279701095 0.006627394528 0.383538717059 0.906951208534 0.374094837934 0.903394961816 -0.030599044880 0.032878120911
3.953377777000 -0.047083608667 0.006181943987 0.382678220575 0.907053356615 0.373237231085 0.904434840897 -0.031794598178 0.033452561648
3.953800000000 -0.047109543750 0.007552523094 0.385514913465 0.906434638074 0.377610270744 0.902882890585 -0.029488221904 0.034060950077
3.954222222000 -0.046760177573 0.007502088305 0.387608855741 0.906253064504 0.375424768052 0.903605144810 -0.030544655246 0.033568248505
3.954644444000 -0.045927496364 0.007586733958 0.390562829913 0.904384138671 0.379512229015 0.902456730263 -0.029331489176 0.034293845842
3.955066666000 -0.047134382056 0.008485337542 0.391311461919 0.905711450782 0.378450910469 0.902627933079 -0.029666472463 0.035201635907
3.955488888000 -0.046732778906 0.008081052320 0.392839180283 0.905535693217 0.379852954478 0.903696247295 -0.030353423428 0.033953863299
3.955911111000 -0.046583556219 0.009159131889 0.393600809531 0.906711922648 0.380763585125 0.902967932818 -0.029197816448 0.034694499112
3.956333333000 -0.047895325642 0.009046860829 0.393329585192 0.905912648980 0.381012039803 0.904692037155 -0.029640771814 0.036304320531
3.956755555000 -0.047091611238 0.008710326112 0.395707499863 0.903933441024 0.383379809503 0.902973366310 -0.029600949669 0.033973828052
3.957177777000 -0.046528815582 0.008426666664 0.397050340113 0.902151143788 0.385191810961 0.901009647209 -0.028925140160 0.034563889892
3.957600000000 -0.046946245982 0.009938367322 0.398207245776 0.905348739001 0.386018841131 0.901801754061 -0.029345383648 0.034986534209
3.958022222000 -0.047121051371 0.009532926068 0.400047070121 0.904858621528 0.388711922180 0.902197176680 -0.029659786186 0.035905529861
3.958444444000 -0.047099105304 0.011696283553 0.401095052380 0.904913857890 0.388806699676 0.902031163375 -0.028357867860 0.037087381598
3.958866666000 -0.047278564801 0.009737885533 0.401979254811 0.904497834000 0.390114009160 0.902624762015 -0.029166088848 0.035585704705
3.959288888000 -0.047808075945 0.011418288829 0.403747578774 0.904451188278 0.391109402138 0.902053901302 -0.028880755366 0.036891698182
3.959711111000 -0.047614229807 0.010517602910 0.404616757354 0.903122868391 0.393150083970 0.901647351531 -0.029222773140 0.036295916463
3.960133333000 -0.047244975628 0.011329542475 0.405492864383 0.903264270619 0.394353780800 0.901613656016 -0.028510952747 0.037006133805
3.960555555000 -0.047331387185 0.012321391572 0.410099560778 0.905604498435 0.396239864510 0.901917216799 -0.027437139196 0.037149508695
3.960977777000 -0.047196405433 0.012375004204 0.410365290148 0.902379939279 0.398142729043 0.901255030864 -0.027094356652 0.037358582665
3.961400000000 -0.046021018412 0.012433696933 0.410483160842 0.902515806166 0.395701619898 0.902327317165 -0.026727779737 0.036558495116
3.961822222000 -0.047086703011 0.012986905718 0.413072717700 0.902874828394 0.399734580764 0.901033273318 -0.027375739799 0.037551263702
3.962244444000 -0.046869637711 0.013294589771 0.414782540073 0.902838985583 0.401027910247 0.899461726917 -0.027183910353 0.037628446787
3.962666666000 -0.046466950533 0.013531927049 0.416844656167 0.902584210024 0.404266067234 0.901402182863 -0.026903221006 0.037145715965
3.963088888000 -0.046849949724 0.014150075895 0.418100000956 0.901895884081 0.403626911932 0.899471358773 -0.026671074165 0.037384099401
3.963511111000 -0.046448956125 0.013587820576 0.418799709818 0.900636952673 0.405123652371 0.899977371103 -0.026794576766 0.037260890680
3.963933333000 -0.046984461437 0.015110878965 0.420481688203 0.902482466173 0.407641743063 0.899835874695 -0.025559371206 0.038007751584
3.964355555000 -0.046217078526 0.015461410956 0.424508895805 0.900028319966 0.408734301003 0.898686433413 -0.025277179997 0.038224317916
3.964777777000 -0.045723891166 0.015498749839 0.424978970323 0.901043950116 0.409244701525 0.899536697315 -0.025229804829 0.037451869714
3.965200000000 -0.045738829322 0.015703790507 0.426850106568 0.900461459110 0.411124172635 0.898401520454 -0.025001304656 0.038005766950
3.965622222000 -0.046229479141 0.016310605995 0.427401049703 0.900533338462 0.411420639088 0.898053108178 -0.025025151491 0.038628960557
3.966044444000 -0.045213818249 0.016417532002 0.430785133669 0.898850701052 0.414949455219 0.898734186713 -0.024869503495 0.037773247513
3.966466666000 -0.045855932841 0.015655559658 0.430298322884 0.898080684872 0.416430385161 0.899316234864 -0.024742113508 0.037783260181
3.966888888000 -0.045146256660 0.016624140369 0.433742081493 0.897881242523 0.417762949883 0.899185396398 -0.024138798738 0.038085341860
3.967311111000 -0.045931936136 0.016679321378 0.433332576115 0.897745409723 0.418357633129 0.896479505411 -0.024495508672 0.037669113169
3.967733333000 -0.045089019804 0.016951117403 0.435593378804 0.897525131058 0.421259932925 0.896702772888 -0.023506435555 0.037718009480
3.968155555000 -0.044547415732 0.018060096376 0.438162708534 0.896986403129 0.420299836255 0.898116722466 -0.023759243497 0.038322765479
3.968577777000 -0.044180669012 0.017263155329 0.439774463097 0.895301780303 0.423615429756 0.896813668469 -0.023993083811 0.037725478832
3.969000000000 -0.043026029456 0.013992379851 0.444658053733 0.889791035982 0.432204400048 0.896451206256 -0.023867654412 0.037358263409
3.969422222000 -0.045088542758 0.018057558475 0.441413921206 0.895149405670 0.426797338223 0.895532611520 -0.023052423222 0.038458244440
3.969844444000 -0.044287091613 0.018136438167 0.445315407123 0.894398739013 0.428963561068 0.894112578625 -0.022428159889 0.038205721258
3.970266666000 -0.044515245265 0.018491377730 0.444409490527 0.895743442738 0.429899625433 0.895697305756 -0.023168823457 0.038019292470
3.970688888000 -0.044182869975 0.019059853905 0.446377098902 0.894526271201 0.430415769049 0.895039456947 -0.022215443526 0.038627364089
3.971111111000 -0.043729533365 0.018856874061 0.449600657382 0.893073747817 0.433625261802 0.895492667572 -0.022619419709 0.038437143892
3.971533333000 -0.043097876624 0.019361068666 0.451325546409 0.892283383103 0.435102517140 0.892598019628 -0.021240156832 0.037388485175
3.971955555000 -0.043213460403 0.019806390769 0.453322255453 0.894172714980 0.437418315305 0.894883354858 -0.022141748618 0.038713273327
3.972377777000 -0.043411336494 0.020496245101 0.454252081180 0.892958139248 0.437791001330 0.893355792651 -0.021101231497 0.038236978704
3.972800000000 -0.042921423345 0.020424422991 0.456236035868 0.892275123947 0.438456274980 0.893909946158 -0.021507568765 0.038080624237
3.973222222000 -0.042725415310 0.020450937640 0.456800958432 0.890253777768 0.441205662294 0.893825532099 -0.021075442027 0.039169145274
3.973644444000 -0.042271907907 0.020660789010 0.460776864676 0.890998666862 0.443506866000 0.892326298711 -0.020601661901 0.037562009906
3.974066666000 -0.041903663267 0.020181271754 0.462012172915 0.889760453893 0.443615567869 0.893287473954 -0.020930376520 0.037344087714
3.974488888000 -0.042494738494 0.021031767493 0.462382477398 0.889221956174 0.444938066662 0.891245596437 -0.020712595366 0.038273557692
3.974911111000 -0.042404782021 0.021278701463 0.465040917031 0.889525561723 0.447058354466 0.891388028420 -0.021047666929 0.038019226920
3.975333333000 -0.041122808911 0.021060665402 0.466525262765 0.888660993840 0.449361899120 0.891993963419 -0.020601000537 0.037118219168
3.975755555000 -0.041739079731 0.020806468622 0.467114296226 0.886793369181 0.451123751709 0.889295051359 -0.020848850905 0.037701717257
3.976177777000 -0.041492373808 0.021428759352 0.468639864574 0.887178137938 0.452561995292 0.889122286859 -0.020166843295 0.037767864514
3.976600000000 -0.040790795393 0.021801670756 0.470365868031 0.885203649046 0.454635148609 0.887622345369 -0.018393886118 0.036616730079
3.977022222000 -0.040788762355 0.021917313705 0.471860679224 0.885898543184 0.454701150750 0.888039388756 -0.019390426986 0.037200449679
3.977444444000 -0.039297498153 0.021713579369 0.476161445297 0.884758310289 0.457393223757 0.889933392088 -0.019250320564 0.036602882710
3.977866666000 -0.040284286793 0.021479551913 0.474910107826 0.882571967986 0.458746850607 0.887116946805 -0.019118720686 0.036536563847
3.978288888000 -0.039831704282 0.021838804050 0.476316802084 0.882137877603 0.459761480121 0.886481375009 -0.019022856540 0.037107222530
3.978711111000 -0.039579533149 0.022350229640 0.478640309477 0.882364368747 0.461622621076 0.885553300301 -0.018264798903 0.036490097801
3.979133333000 -0.040110677846 0.021956964216 0.480987684120 0.881209518664 0.465185871341 0.883803480893 -0.018757421619 0.036637750102
3.979555555000 -0.039315983094 0.022330622574 0.482832754485 0.881243698239 0.465773473402 0.885348337380 -0.018568890754 0.036371962832
3.979977777000 -0.038426655857 0.022621028315 0.484413832221 0.880543913735 0.466132460710 0.885312314695 -0.018211728148 0.035546624835
3.980400000000 -0.038624536963 0.023047047579 0.486207615641 0.878785520328 0.467412021875 0.883539938891 -0.018281247130 0.036620207030
3.980822222000 -0.037892826564 0.022473799056 0.487232124720 0.879449246653 0.470801785660 0.884513859620 -0.018073362666 0.035331002703
3.981244444000 -0.038053357837 0.022051796856 0.488920008932 0.876258072985 0.472680658408 0.881209696972 -0.018291925286 0.034952190243
3.981666666000 -0.037970823665 0.021882884606 0.489852006971 0.876806376983 0.474221762617 0.883733049018 -0.019337072742 0.034793993245
3.982088888000 -0.037077063702 0.022627149043 0.492229504893 0.876416600858 0.475389107688 0.882878523325 -0.017972708767 0.034355764557
3.982511111000 -0.037848539715 0.022207170611 0.492777198859 0.874307179660 0.476574096612 0.880546186296 -0.018627665802 0.034697318056
3.982933333000 -0.036625646772 0.023159009835 0.495811350993 0.875410144295 0.479138630647 0.882007291844 -0.017713252501 0.034485804776
3.983355555000 -0.036857571115 0.022675852923 0.497226240947 0.873796854841 0.480305698755 0.881119366044 -0.017737231787 0.034070640958
3.983777777000 -0.036475131519 0.022668523308 0.498261418215 0.872807761542 0.482335867745 0.879577385839 -0.017669003068 0.034451461795
3.984200000000 -0.035853306800 0.025083576139 0.500172656687 0.874055166888 0.480216728561 0.877075844523 -0.016074714789 0.034246054118
3.984622222000 -0.036090364886 0.022276839525 0.501379194173 0.870905569782 0.486632593403 0.878077048737 -0.017903834883 0.034030991282
3.985044444000 -0.035997880799 0.022446842644 0.502636264531 0.870133331018 0.487952624218 0.876756316242 -0.017685432525 0.033916045847
3.985466666000 -0.035417781508 0.022839515837 0.503919525275 0.868649346173 0.488672845378 0.877162375588 -0.017866119351 0.033651551826
3.985888888000 -0.034988000034 0.022734748188 0.507071150829 0.868485330896 0.491292649810 0.876367054518 -0.017399130312 0.033375032492
3.986311111000 -0.034687928089 0.022925148038 0.507987805610 0.867222226895 0.490990306123 0.875618097639 -0.016981874902 0.032963854958
3.986733333000 -0.035489213700 0.023029626074 0.507345980472 0.866935861789 0.491417482777 0.873109598002 -0.017281953175 0.033177973059
3.987155555000 -0.034433816335 0.022858032848 0.510366111295 0.866293853671 0.493599255089 0.873950946949 -0.016628563284 0.032670924090
3.987577777000 -0.033975260952 0.022405870100 0.511937182771 0.864639028198 0.496675232972 0.873107242118 -0.016914814776 0.031897760182
3.988000000000 -0.034344899119 0.022852357598 0.513673516824 0.864121330594 0.497951169875 0.871900801898 -0.016928548287 0.032316957512
3.988422222000 -0.034060061206 0.022145872265 0.515499959930 0.861659914880 0.499883748409 0.870628817040 -0.018313739231 0.031681481372
3.988844444000 -0.033448295754 0.022114350046 0.516729974409 0.861304036276 0.501751512063 0.871170616396 -0.017160179971 0.032226669356
3.989266666000 -0.032838122279 0.022518015407 0.518781636577 0.861217442735 0.503283152370 0.871042280971 -0.017576665704 0.031506735171
3.989688888000 -0.033824705396 0.022739546465 0.519226914243 0.860630845072 0.503734269698 0.868260608489 -0.017428557738 0.031797409501
3.990111111000 -0.033295199022 0.022031501038 0.521445468498 0.857906210687 0.507458288619 0.866419802097 -0.017614008112 0.032163976469
3.990533333000 -0.032941388177 0.022163512009 0.522508312226 0.858252194518 0.507328850645 0.866980119251 -0.016377392408 0.030755820501
3.990955555000 -0.032733775966 0.021814191803 0.524286632201 0.856720660113 0.507810471287 0.866536436241 -0.017005352186 0.030541951090
3.991377777000 -0.033224420263 0.022086826177 0.524862488944 0.856190385485 0.509799411407 0.865207932375 -0.017428713112 0.030716031679
3.991800000000 -0.032270800216 0.022087640267 0.527111202463 0.854993656725 0.512706153066 0.864361525770 -0.016378326578 0.031078119854
3.992222222000 -0.032609791565 0.021491589162 0.528945180027 0.854028607552 0.514224543653 0.864044554848 -0.017564891312 0.029664739479
3.992644444000 -0.032579710566 0.021971784025 0.529891870150 0.853237596111 0.514940829685 0.862462848213 -0.017066333530 0.030023627286
3.993066666000 -0.031943693196 0.021310370771 0.532037482495 0.852710118738 0.516673659077 0.862941957724 -0.016772995809 0.029080062904
3.993488888000 -0.031693800649 0.021062950703 0.534209646729 0.851024468658 0.517620745114 0.861314856351 -0.017027086707 0.029276536357
3.993911111000 -0.031900320458 0.020691941537 0.534932400457 0.849635906998 0.520782804091 0.859877236877 -0.017567044529 0.029277152112
3.994333333000 -0.031187362817 0.020664984499 0.537376893043 0.847913612020 0.522837673887 0.859147127367 -0.017777593378 0.028866257903
3.994755555000 -0.032081296672 0.021079996623 0.537840444252 0.847377075549 0.523083514224 0.856985010707 -0.018233533047 0.029037275912
3.995177777000 -0.031700933189 0.020753087204 0.538820538567 0.846478642668 0.525967872913 0.857512962461 -0.018466219123 0.028605507123
3.995600000000 -0.031405693817 0.021338545816 0.539987497117 0.845674318936 0.524338996828 0.855957886022 -0.017327777779 0.029398836997
3.996022222000 -0.031495361387 0.020273086199 0.541615329659 0.844052123269 0.528773450468 0.854453819045 -0.018613470734 0.028554283881
3.996444444000 -0.031077235258 0.020525994629 0.542831096916 0.844033194097 0.529294322082 0.855291526682 -0.017699921204 0.027943936783
3.996866666000 -0.030837017270 0.020240110792 0.544868350909 0.842872298546 0.532259127409 0.854851531784 -0.018709150454 0.028269869909
3.997288888000 -0.031159817098 0.020671853189 0.546459412804 0.842718618241 0.531446635826 0.852658904031 -0.017936445129 0.027874253688
3.997711111000 -0.030832607978 0.019909642417 0.547361085722 0.840638056595 0.534977924822 0.852460324640 -0.018506865706 0.027583564838
3.998133333000 -0.030822627839 0.020101412892 0.547807232377 0.840213940981 0.535836395541 0.851679458674 -0.018489547901 0.027664704598
3.998555555000 -0.030640433239 0.020351768838 0.550968022227 0.839029577033 0.537648279821 0.850364864183 -0.019010584443 0.027695358948
3.998977777000 -0.030831392148 0.020364735153 0.550860174476 0.838370538716 0.537144256209 0.848565864856 -0.018188098921 0.027671011798
3.999400000000 -0.029714185109 0.020046771049 0.553140710947 0.837317858080 0.541714173079 0.850227705717 -0.019248837876 0.027232806010
3.999822222000 -0.030880803323 0.019411965617 0.553789054700 0.834532113512 0.541428948772 0.846716491503 -0.018917305512 0.027371081863
4.000244444000 -0.030720745033 0.019989111554 0.554399433715 0.833861801782 0.540930234342 0.845472724015 -0.018572426382 0.027775169438
4.000666666000 -0.030164481257 0.019339044664 0.555990088115 0.832490744695 0.544235846937 0.845849866502 -0.018804994544 0.027020009710
4.001088888000 -0.030170900744 0.019112288952 0.557695597447 0.831938355812 0.545272614118 0.844541644270 -0.018884316431 0.026920274704
4.001511111000 -0.030619145578 0.018787996214 0.558645287490 0.831221333363 0.547047155481 0.843121618659 -0.018724501768 0.026291499193
4.001933333000 -0.030226387542 0.019723258882 0.558436924209 0.829720450673 0.547196348373 0.843462840286 -0.019319607552 0.027156646138
4.002355555000 -0.030913606938 0.019026039500 0.560682887739 0.828946829715 0.549003961200 0.840975145598 -0.019107491634 0.026364384649
4.002777777000 -0.030631968770 0.019197257955 0.562553974969 0.827222125879 0.550672707556 0.839977304741 -0.020530578484 0.026885988349
4.003200000000 -0.030312606493 0.018804806483 0.564920584815 0.827077546398 0.553049423908 0.838780870795 -0.019276003387 0.026630971571
4.003622222000 -0.030703211735 0.018624240118 0.565178464510 0.825916164812 0.554716812842 0.835967357190 -0.020101926504 0.026789536341
4.004044444000 -0.030832251967 0.018973377755 0.567931144807 0.824656831967 0.554573937936 0.834733834502 -0.020110617010 0.026537613127
4.004466666000 -0.031522674294 0.018716894121 0.565556226977 0.823508210184 0.554878168147 0.836039466590 -0.019657901037 0.025854833794
4.004888888000 -0.030401926810 0.019187169027 0.569740456629 0.822997790190 0.557406915225 0.833515093343 -0.019924455207 0.026834498086
4.005311111000 -0.030340536239 0.018089800910 0.570075894574 0.821619187518 0.559240320902 0.834551599521 -0.019740241195 0.025691031245
4.005733333000 -0.031033750196 0.018333493243 0.572235518097 0.820776169061 0.561297753842 0.831133108067 -0.020507615148 0.025854236059
4.006155555000 -0.031166364070 0.017681696360 0.572489901366 0.820199962629 0.562231150354 0.830563988222 -0.019601264475 0.025879031493
4.006577777000 -0.031055854821 0.017474919086 0.574222197895 0.818837584068 0.564914543955 0.830193342381 -0.020384933247 0.025432292336
4.007000000000 -0.030567687212 0.017810233193 0.569785152396 0.821006330728 0.566578827077 0.835543220853 -0.018962503061 0.025271548499
4.007422222000 -0.030751395320 0.017698190317 0.576234952658 0.815744510671 0.566905084471 0.828248676319 -0.020359468575 0.025843772643
4.007844444000 -0.031144424399 0.017788802739 0.578045697062 0.813370097570 0.568539131055 0.824871845468 -0.020825062339 0.026701511479
4.008266666000 -0.031546371841 0.018112997134 0.578138978802 0.812822608356 0.568171604898 0.824854017236 -0.021408316085 0.026354297419
4.008688888000 -0.031454794367 0.017872650273 0.581903544489 0.813058902916 0.572261678193 0.823627240291 -0.021819202152 0.025509069808
4.009111111000 -0.031967088859 0.017290234688 0.582515213753 0.812719185744 0.573438191321 0.822085464442 -0.021300304104 0.024470104037
4.009533333000 -0.031015375312 0.018288483936 0.583265242346 0.809280837360 0.571562066613 0.822516997267 -0.021433246842 0.025886214071
4.009955555000 -0.031855954166 0.018092427027 0.584275649238 0.809094288146 0.573394907260 0.819122765425 -0.021810539305 0.025537845132
4.010377777000 -0.031140719532 0.017701391419 0.583859934524 0.806866563130 0.573698359247 0.821992074656 -0.021269229461 0.025240787350
4.010800000000 -0.032101834749 0.017441427302 0.584256082733 0.807194494779 0.575294632094 0.819262715288 -0.020915923226 0.025815208060
